!Agilent N9923A: A.05.17
!Date: Sunday, 01 January 2006 12:28:06
!Model: N9923A
!Serial: MY50371189
!CHECKSUM:1102555998
!Correction: S11(ON U)
!S1P File: Measurement: S11:
# Hz S RI R 50
200000000	-0.0543638179548035	0.609233020038528
201300000	0.362887811980424	0.489319277725237
202600000	0.587010622627198	0.112957920339103
203900000	0.484021483318711	-0.325896731798869
205200000	0.0879251582328219	-0.567776843305993
206500000	-0.365885125404344	-0.447135317454337
207800000	-0.587553450437724	-0.0424242900567123
209100000	-0.46056248159218	0.38438794543269
210400000	-0.0852235080092291	0.596994554096186
211700000	0.328481286698614	0.499295260938922
213000000	0.567352947068552	0.139287928747755
214300000	0.48334018820409	-0.299813971105899
215600000	0.0950643634712156	-0.55199139269959
216900000	-0.359070987706937	-0.434012069436235
218200000	-0.574081943490068	-0.0273122067045401
219500000	-0.436087004652315	0.391892336317021
220800000	-0.0598703518046488	0.588898322096231
222100000	0.342181086731246	0.480953821060175
223400000	0.568757070178705	0.125618469794042
224700000	0.485060370486182	-0.302545639192873
226000000	0.108171574972196	-0.553465366421025
227300000	-0.33900209037198	-0.449736946962742
228600000	-0.565975702218018	-0.0599726668212411
229900000	-0.452648335650167	0.358144646815201
231200000	-0.0974448558556078	0.574234771203328
232500000	0.303383707708258	0.49572534358838
233800000	0.549812983997243	0.163442277751593
235100000	0.494710835015519	-0.262947198625594
236400000	0.133560226013855	-0.530042950202394
237700000	-0.315893267824738	-0.437555913248713
239000000	-0.541596058706852	-0.0461672558160712
240300000	-0.41604704280972	0.368018189494908
241600000	-0.0532905993904189	0.565717334055388
242900000	0.337022404536031	0.467347338684332
244200000	0.56191653430668	0.13059011904387
245500000	0.493810487397963	-0.281952127518944
246800000	0.14147360393357	-0.53622832114095
248100000	-0.29535728033601	-0.454164011571022
249400000	-0.532357203068591	-0.0832742135130238
250700000	-0.435693582308201	0.330434790211284
252000000	-0.0925055204158176	0.551905615420096
253300000	0.300358192288988	0.48409094909231
254600000	0.546314678969758	0.167323573301841
255900000	0.505613635670503	-0.244059385047502
257200000	0.171766421886539	-0.514022150099422
258500000	-0.263299244732732	-0.45204609199063
259800000	-0.509093527036281	-0.0921736895116286
261100000	-0.420549879439846	0.319173186633643
262400000	-0.0817457456835606	0.540104281526628
263700000	0.306874685927805	0.470369079520176
265000000	0.545205280728476	0.153118450228181
266300000	0.495173284644728	-0.25230194469933
267600000	0.158745582090739	-0.508853004412012
268900000	-0.266563733653361	-0.436548051707485
270200000	-0.499702435753681	-0.0789323081788201
271500000	-0.406533214377549	0.323301424435207
272800000	-0.0713455060911621	0.536622463024174
274100000	0.311291895402296	0.464336871010481
275400000	0.543388531703484	0.149313532720868
276700000	0.49143647811051	-0.24958409555628
278000000	0.161044198505606	-0.501159103017731
279300000	-0.256047667524823	-0.435385620419646
280600000	-0.493427530011591	-0.0922166605942025
281900000	-0.419216324158647	0.304564682501055
283200000	-0.102756418109227	0.531795410965035
284500000	0.276736492826532	0.485305779184478
285800000	0.525858687036351	0.191877502825856
287100000	0.502556663528284	-0.203475185852961
288400000	0.194561110681001	-0.474574914043416
289700000	-0.22140701283855	-0.436090327038512
291000000	-0.475722555305124	-0.109652739387457
292300000	-0.420452249427866	0.286649292691203
293600000	-0.115583774638186	0.5230628636082
294900000	0.260000535059938	0.487861567128061
296200000	0.511964500274437	0.204143381515684
297500000	0.496291202113416	-0.186121392348608
298800000	0.19735430439302	-0.458117043461132
300100000	-0.213596096311686	-0.426860105760125
301400000	-0.469027500622261	-0.108541598441303
302700000	-0.419411043461598	0.28311052270407
304000000	-0.121808405148647	0.518852336677452
305300000	0.248261850683339	0.486388023940243
306600000	0.496908998570959	0.206641910456373
307900000	0.479093211703998	-0.178820803062633
309200000	0.178465374632988	-0.443688830579957
310500000	-0.228154664564112	-0.401860254777421
311800000	-0.46992873970386	-0.078549909957811
313100000	-0.40815458248328	0.304488220362841
314400000	-0.110897776863592	0.527303693188173
315700000	0.24941170677348	0.490570687136241
317000000	0.492781019273423	0.219262346712479
318300000	0.483616901301077	-0.158079644162112
319600000	0.196679010413489	-0.428831338731788
320900000	-0.208999509066126	-0.401817145945074
322200000	-0.460177389314047	-0.0854885071792273
323500000	-0.405155757638159	0.298589597304445
324800000	-0.111778917325666	0.52240933210335
326100000	0.243084207744041	0.489767075720029
327400000	0.485661480711838	0.229822316017492
328700000	0.490160215442827	-0.136934339392902
330000000	0.22464849942158	-0.415397361949627
331300000	-0.175176842158412	-0.413762274485918
332600000	-0.443253949306265	-0.114341116149707
333900000	-0.403836655273203	0.273012485014267
335200000	-0.111855087000869	0.502860176191848
336500000	0.244669191791671	0.465430065320386
337800000	0.478402769478429	0.196436513032519
339100000	0.462016556923063	-0.169720399252578
340400000	0.179390474925196	-0.427233162755048
341700000	-0.213793054224417	-0.396632915743311
343000000	-0.456176440110747	-0.0866062694069101
344300000	-0.399257530600084	0.289394933369859
345600000	-0.108815984567661	0.50598875808575
346900000	0.238900125764278	0.4703266346091
348200000	0.474645273597151	0.214733187700079
349500000	0.480472670302978	-0.141587373258325
350800000	0.230296254096702	-0.416506149357988
352100000	-0.15371139515496	-0.433965525105844
353400000	-0.432900076821263	-0.166874972204517
354700000	-0.432651391118624	0.20889408868452
356000000	-0.177667271378619	0.462844244067225
357300000	0.170851441004183	0.469178821181694
358600000	0.426792718292956	0.233843863031541
359900000	0.444146736885501	-0.124590671997657
361200000	0.182986965363739	-0.394607367212272
362500000	-0.204289169152174	-0.3765181794705
363800000	-0.442965036345891	-0.075280567726622
365100000	-0.386759421963874	0.288551502306378
366400000	-0.109216897207904	0.497919993697347
367700000	0.224051608549268	0.471334919792449
369000000	0.459465821245795	0.236131273764431
370300000	0.482098296146782	-0.106663145439381
371600000	0.250864277554181	-0.385534765388637
372900000	-0.127004702990334	-0.412106312242595
374200000	-0.401643406056168	-0.145269589697914
375500000	-0.387427973636797	0.226009802238928
376800000	-0.124903026907236	0.461100655324708
378100000	0.212362371793227	0.451370562756218
379400000	0.452521465697123	0.220751543648318
380700000	0.475980378469431	-0.11927223711292
382000000	0.247714650632647	-0.392494149669955
383300000	-0.121478892374286	-0.419814785451182
384600000	-0.394274201223998	-0.164280764146919
385900000	-0.393423626019693	0.200120029147405
387200000	-0.145472053730268	0.443398726008408
388500000	0.188786973168739	0.448655382481482
389800000	0.436462441158838	0.229482694147897
391100000	0.469776950894963	-0.107231488261523
392400000	0.248849757847964	-0.382399326321245
393700000	-0.115520192610153	-0.413848692694899
395000000	-0.387863538763133	-0.165592203389161
396300000	-0.394205611791052	0.191922119873781
397600000	-0.157794146635554	0.437914907495761
398900000	0.170328196732694	0.455556580856988
400200000	0.422390746381714	0.249906422705515
401500000	0.468218984322661	-0.0802038230596554
402800000	0.258672667758562	-0.358806548572292
404100000	-0.101241438357186	-0.397344555378509
405400000	-0.372839351725665	-0.154472393385196
406700000	-0.379566497477148	0.198537911252485
408000000	-0.147184984024946	0.440324265192848
409300000	0.174117313304249	0.459133881792725
410600000	0.423540683228013	0.260906428127519
411900000	0.474301829617091	-0.0623535493390582
413200000	0.274060107149364	-0.340827170171631
414500000	-0.0811220129439467	-0.386312739359198
415800000	-0.353932046508224	-0.150219087921086
417100000	-0.364034851666124	0.199288119919064
418400000	-0.136332120421014	0.43931454995556
419700000	0.178879556123058	0.460302091814937
421000000	0.425040668326675	0.271385185351315
422300000	0.485053061580357	-0.0402861543410344
423600000	0.305625485514512	-0.321199923885778
424900000	-0.0378980057126253	-0.390934296622605
426200000	-0.326229243886429	-0.178427233179327
427500000	-0.360726160021246	0.169929016812992
428800000	-0.144520241138203	0.42271395562406
430100000	0.170496364964439	0.453365223760314
431400000	0.418089042203763	0.268244714756311
432700000	0.476887179167561	-0.0400289475657045
434000000	0.298858814614934	-0.314989348809355
435300000	-0.0384168301327016	-0.381125336620061
436600000	-0.320438938562743	-0.170934759895609
437900000	-0.352051258102549	0.173049954900689
439200000	-0.134754403736739	0.420767396019143
440500000	0.178446946821233	0.444663171024854
441800000	0.419389261938814	0.253274485496582
443100000	0.467518829481895	-0.0546905087270554
444400000	0.282858085910879	-0.321550709905151
445700000	-0.0502939481988273	-0.380619755136824
447000000	-0.327206066095612	-0.17553248787567
448300000	-0.367404898960487	0.159641474497502
449600000	-0.167701068286634	0.412145220291971
450900000	0.136456453194115	0.456275190251749
452200000	0.385291657090082	0.286759656985196
453500000	0.454405122298168	-0.0113825139856738
454800000	0.287296163345587	-0.285179491811287
456100000	-0.0423678250920327	-0.354104292150041
457400000	-0.318882117328474	-0.148636269972757
458700000	-0.348759000575905	0.186346708373504
460000000	-0.139576518219217	0.427157601156987
461300000	0.161676303118363	0.455978904499422
462600000	0.399127359859701	0.28111808223661
463900000	0.461880143863926	-0.0105552932733673
465200000	0.301913666815064	-0.278565463671931
466500000	-0.0180759668424557	-0.35531150487002
467800000	-0.296706517690078	-0.164602734288921
469100000	-0.338463938499008	0.164990031575504
470400000	-0.135981446343379	0.407958248540503
471700000	0.16309592938055	0.437072891259723
473000000	0.396126806017861	0.260364412345718
474300000	0.451378994215206	-0.0306310236490628
475600000	0.286595957224861	-0.291925043982405
476900000	-0.03023746822872	-0.362924902084011
478200000	-0.306436400161482	-0.176473248549845
479500000	-0.357280053274916	0.147070840191276
480800000	-0.171411835700108	0.397752010868608
482100000	0.119589209700484	0.449821290679342
483400000	0.364654096783748	0.298638892275207
484700000	0.447793911213833	0.0195640203021931
486000000	0.310201903717283	-0.252805181668949
487300000	0.00147459997413402	-0.347097285242555
488600000	-0.283105974340019	-0.173882928227418
489900000	-0.34026536666082	0.148862798882885
491200000	-0.155424553587129	0.398119033274874
492500000	0.131670338782935	0.449503993846668
493800000	0.373100392072039	0.306286355215628
495100000	0.465610300925507	0.0404620073254362
496400000	0.353590731275266	-0.231441263959685
497700000	0.0655109042510163	-0.352202841954197
499000000	-0.22923982575292	-0.211918179584917
500300000	-0.309781512440974	0.104110635313884
501600000	-0.130495167567324	0.358885988770969
502900000	0.159829449513456	0.401630463216603
504200000	0.389720025843589	0.23885875681586
505500000	0.450952615387812	-0.0363301337588667
506800000	0.305258660893965	-0.289530867819856
508100000	0.00862500188123472	-0.373819989009503
509400000	-0.267219246110845	-0.211287934979401
510700000	-0.334751393611902	0.101722462017813
512000000	-0.161278838480388	0.356032580352734
513300000	0.124643936203214	0.414667938166842
514600000	0.366319158161475	0.270792626894547
515900000	0.451321007808803	0.00285647801111784
517200000	0.328640887984837	-0.260534668237167
518500000	0.0417872187697338	-0.366297725201278
519800000	-0.24091597243835	-0.222435650444533
521100000	-0.32207535218977	0.0844560926304657
522400000	-0.159098647930128	0.341775368530587
523700000	0.122365550927164	0.40627707008842
525000000	0.363744260898316	0.269005707525191
526300000	0.453242569679445	0.00758780533061016
527600000	0.340433991784448	-0.254077688438512
528900000	0.0631582930513891	-0.367745652984945
530200000	-0.220881162129251	-0.239107256968005
531500000	-0.315552553152926	0.0601002461288908
532800000	-0.164764333403466	0.323194985115508
534100000	0.113554868237935	0.396969407363201
535400000	0.35698126824474	0.265506310455345
536700000	0.448900712621067	0.00664487172282971
538000000	0.338776017492192	-0.253472249650316
539300000	0.0657366088550906	-0.368337532535124
540600000	-0.216653860797583	-0.246890860915366
541900000	-0.321091833586068	0.0439779625854959
543200000	-0.187833969721522	0.312165983384657
544500000	0.081512215545116	0.406206577413992
545800000	0.332826287314903	0.297635521964723
547100000	0.44724368037019	0.0520110001703426
548400000	0.364082127415009	-0.212419575652596
549700000	0.107971529122373	-0.349147800399438
551000000	-0.178382319892505	-0.252235025927715
552300000	-0.298695296555066	0.0282534657437577
553600000	-0.17575651335148	0.298445933327792
554900000	0.0899838360473628	0.394298350695635
556200000	0.338166995919291	0.285176324619288
557500000	0.447836274580948	0.0406965701392748
558800000	0.362111845308299	-0.219460643346491
560100000	0.110201037738186	-0.353142439156711
561400000	-0.172726742331896	-0.26335499623432
562700000	-0.301332978024576	0.00758230773755101
564000000	-0.194007338322562	0.279198979496807
565300000	0.0636928786544488	0.38802147156711
566600000	0.314010672549069	0.290686223525211
567900000	0.428080872221998	0.0504436591082015
569200000	0.34323445409087	-0.207959941698129
570500000	0.0902500831723624	-0.336121211565161
571800000	-0.186724071876491	-0.237077833574019
573100000	-0.30337996164493	0.0345377428165327
574400000	-0.1905175182026	0.29909538997208
575700000	0.0633228661642165	0.403358192494836
577000000	0.310522382779631	0.31125881568907
578300000	0.431969489708784	0.0790970858187824
579600000	0.362325793818987	-0.179441312695611
580900000	0.121180522333906	-0.321895811524528
582200000	-0.159202853813263	-0.241796391191024
583500000	-0.28893535827754	0.0221533267768625
584800000	-0.185528482537372	0.288309280052244
586100000	0.0634784771045986	0.395741543661987
587400000	0.307368399978311	0.307792759305467
588700000	0.428595451418599	0.0820697493161755
590000000	0.367210105039789	-0.171558747132429
591300000	0.138843357606658	-0.320644439006773
592600000	-0.139512433821223	-0.26089416094671
593900000	-0.287989039984123	-0.0132934939077095
595200000	-0.209595150072561	0.258020546315229
596500000	0.0286056187407906	0.384453136988367
597800000	0.276626923718538	0.311337870743121
599100000	0.405116861786893	0.0905773932331326
600400000	0.343129128257795	-0.162946505524114
601700000	0.109825290700272	-0.303951766700625
603000000	-0.16300096521319	-0.226406567893725
604300000	-0.289381161599452	0.0306461331533358
605600000	-0.190960403031407	0.289636283033716
606900000	0.0489925607294286	0.397842856658354
608200000	0.28903278397301	0.318666339947043
609500000	0.414692352645397	0.102925927079464
610800000	0.362839865451547	-0.147873197041958
612100000	0.141144372156795	-0.300159534761889
613400000	-0.134773407487518	-0.241365364057089
614700000	-0.277533643074936	0.00596689603366908
616000000	-0.192925989638819	0.270200695758806
617300000	0.0412235703140096	0.387778456183309
618600000	0.280517442595452	0.31883567058087
619900000	0.412277955658967	0.113265351748983
621200000	0.374686543263731	-0.132895308386098
622500000	0.168584721553395	-0.293761926886642
623800000	-0.103809466453856	-0.254071992944407
625100000	-0.256429654403462	-0.0180556977523054
626400000	-0.179585919512881	0.245755337415798
627700000	0.0544913112702205	0.361293528101091
629000000	0.290515470079897	0.282881582177591
630300000	0.408348908058581	0.069882933810567
631600000	0.351947602541494	-0.173121982202954
632900000	0.134053661645668	-0.317835666280244
634200000	-0.134633778874125	-0.262528164582302
635500000	-0.280704049100692	-0.0238579886699487
636800000	-0.208772281917162	0.238720509816042
638100000	0.0157492713289149	0.366533652682146
639400000	0.254599363095235	0.309371900906595
640700000	0.39056115772812	0.112224580470255
642000000	0.357081638175537	-0.129117435540071
643300000	0.154349456295256	-0.28496585308027
644600000	-0.110194575994945	-0.239166459776351
645900000	-0.252250882446715	-0.0042372363044153
647200000	-0.171664674029524	0.251002029847777
648500000	0.0556921728876418	0.364917650718119
649800000	0.287153315221482	0.296923402300504
651100000	0.415034175984732	0.0984092805713012
652400000	0.38150445646233	-0.139398121167048
653700000	0.186163295071914	-0.299653417910135
655000000	-0.0787345380976476	-0.271681974661939
656300000	-0.240589181395264	-0.050897787432025
657600000	-0.185348123943493	0.211414361150894
658900000	0.0306454867770423	0.345844428264661
660200000	0.265980192485939	0.296117244322309
661500000	0.403545297025014	0.107617729438204
662800000	0.378768351861033	-0.127418923900429
664100000	0.189372071903705	-0.286956366473693
665400000	-0.0706014062444369	-0.256404195666054
666700000	-0.22227439741394	-0.0335017956911087
668000000	-0.153966881775617	0.223060519586753
669300000	0.0675229944082094	0.34255313028133
670600000	0.297299300134249	0.280104942911613
671900000	0.425555028491773	0.0884853677609408
673200000	0.398816605507635	-0.143160183304493
674500000	0.217001073364339	-0.305543154199625
675800000	-0.0398487448415806	-0.294396920058536
677100000	-0.213681040287349	-0.0921982596487982
678400000	-0.179952270938123	0.169792293576377
679700000	0.0248722636081088	0.316877156712369
681000000	0.260101888674115	0.279603205482193
682300000	0.401880778965708	0.0985248510398064
683600000	0.385919904178144	-0.132166533351251
684900000	0.21027686683553	-0.296994741270972
686200000	-0.0432729242816282	-0.29003016777838
687500000	-0.220024515653127	-0.0948003682304466
688800000	-0.197739648357885	0.166678996444001
690100000	-0.00314218571835069	0.325660989569267
691400000	0.233715901427341	0.30706527172168
692700000	0.390139418310698	0.139930835799465
694000000	0.393472650547831	-0.0884181345355958
695300000	0.233378968160119	-0.261839093707192
696600000	-0.0152420288542605	-0.266518154962637
697900000	-0.188770165298161	-0.0771896478680803
699200000	-0.159697770116103	0.175942076124023
700500000	0.0378560508637631	0.318929947251125
701800000	0.265920633002009	0.282701469385307
703100000	0.404204238982089	0.106457295471633
704400000	0.388972893426992	-0.118093791005497
705700000	0.21865717039669	-0.279184183717026
707000000	-0.0293359880606391	-0.272820058494121
708300000	-0.200623601291428	-0.0807312986929403
709600000	-0.174292627962479	0.174144370586148
710900000	0.0194639133945804	0.324532058263692
712200000	0.249854159634631	0.299168017788792
713500000	0.399093296488379	0.133549031517637
714800000	0.402590414299828	-0.0888620783740607
716100000	0.25145474059023	-0.263160713044247
717400000	0.00973789634812304	-0.284025280368752
718700000	-0.178724992260145	-0.116380588356811
720000000	-0.178965519244235	0.136147115670325
721300000	0.00263045714641747	0.298452521714592
722600000	0.231999444784978	0.279336076588043
723900000	0.376608084476651	0.111587450704501
725200000	0.366743579950494	-0.109405806477661
726500000	0.2016997201888	-0.268743154596726
727800000	-0.039988289908727	-0.265864664738248
729100000	-0.212400107098495	-0.0836180628816442
730400000	-0.197950321466973	0.16682935647082
731700000	-0.0166122498388487	0.325795073172126
733000000	0.211880602343331	0.316231005784843
734300000	0.369207397294934	0.162205876631752
735600000	0.384228092666161	-0.0568466017720457
736900000	0.242697118868846	-0.232685418745217
738200000	0.00602366466605898	-0.258725119597622
739500000	-0.179704291818298	-0.0951605414676379
740800000	-0.178704003720614	0.151967303272141
742100000	-0.00268275648881625	0.311038978979097
743400000	0.220984657635402	0.298232331448671
744700000	0.370665561439961	0.14332189837782
746000000	0.379639358295009	-0.0717115255762854
