!Agilent N9923A: A.05.17
!Date: Sunday, 01 January 2006 12:26:28
!Model: N9923A
!Serial: MY50371189
!CHECKSUM:2041499142
!Correction: S11(ON U)
!S1P File: Measurement: S11:
# Hz S RI R 50
200000000	-0.66397075148412	-0.537170451497649
201300000	-0.799712088602331	-0.303868863664737
202600000	-0.855597942831082	-0.0413856411351836
203900000	-0.82768757336012	0.222083659679446
205200000	-0.721869465136126	0.460848702154593
206500000	-0.552290835526536	0.652873054372142
207800000	-0.337017555008585	0.783733695306492
209100000	-0.0977445580077247	0.845210162789663
210400000	0.14601286724569	0.835664119905741
211700000	0.374188940154306	0.759431416581971
213000000	0.571012565592218	0.622835820819414
214300000	0.721138079514098	0.43772820270967
215600000	0.814846089185059	0.217617436357241
216900000	0.843089591579866	-0.0218189138630573
218200000	0.802331588606965	-0.262557663863209
219500000	0.691856900165371	-0.485862648863387
220800000	0.51756027462544	-0.670812041199422
222100000	0.290210490582783	-0.797777045341974
223400000	0.0301076227595778	-0.849377912753355
224700000	-0.238630550581893	-0.815738221851196
226000000	-0.486524351634698	-0.696023167776651
227300000	-0.682913006745149	-0.501379358844084
228600000	-0.804943804477288	-0.25354000390609
229900000	-0.840120631228986	0.017990649546292
231200000	-0.787336602752709	0.282614484437021
232500000	-0.656661589364811	0.512419786810057
233800000	-0.466158303578583	0.686958570306268
235100000	-0.237385576110527	0.794208302552999
236400000	0.0071846423427772	0.828372182631018
237700000	0.246496279633386	0.792049114992261
239000000	0.463003603452489	0.691329697700786
240300000	0.640444885815556	0.535897644898046
241600000	0.76785220911215	0.338784320281573
242900000	0.836068013468221	0.113537003317877
244200000	0.839353134906407	-0.123079817614232
245500000	0.77536298783766	-0.353693139233804
246800000	0.646856757611768	-0.559213278979492
248100000	0.461208110584824	-0.721934632706028
249400000	0.232285079828314	-0.824516152853746
250700000	-0.0209649423029921	-0.853772876359185
252000000	-0.274334850409921	-0.804368239251152
253300000	-0.502186545249365	-0.678692809005101
254600000	-0.681199403996257	-0.488133518842366
255900000	-0.792165164325908	-0.252398921585351
257200000	-0.825675434500218	0.00435391274914508
258500000	-0.779933686179477	0.256506943109984
259800000	-0.662554062738005	0.479733059454212
261100000	-0.487408440432998	0.656109736995804
262400000	-0.271368439467424	0.771715652674239
263700000	-0.034756068866467	0.8198647972639
265000000	0.20346285573211	0.799345903264327
266300000	0.425144847907444	0.712096936136481
267600000	0.612770953843732	0.566421234057787
268900000	0.751966010884989	0.3718296164727
270200000	0.830200645922821	0.143346487005317
271500000	0.838524726714246	-0.101512285099104
272800000	0.772474148940758	-0.34235969687257
274100000	0.633407235756172	-0.555628893570522
275400000	0.431598058948425	-0.719054470943848
276700000	0.184415947084546	-0.812228815800982
278000000	-0.0829390434475151	-0.821589775974933
279300000	-0.341217128682869	-0.744260177483071
280600000	-0.560667664873446	-0.588166138035739
281900000	-0.717769226281236	-0.371690980636106
283200000	-0.796955728586751	-0.120022158636238
284500000	-0.794022509554796	0.138809817627062
285800000	-0.714270890742417	0.378541943471639
287100000	-0.570440948500219	0.579171865205055
288400000	-0.378964691163457	0.725787176113194
289700000	-0.15871878686422	0.809697984010257
291000000	0.0722189569241956	0.828470328954942
292300000	0.296564919969228	0.782992175126576
293600000	0.498610420979959	0.678147307585173
294900000	0.664160148199792	0.521227122838816
296200000	0.780585326879398	0.323030852592595
297500000	0.837553405612664	0.0961971274497221
298800000	0.826889811478043	-0.14215900406482
300100000	0.744902750428678	-0.372989294155716
301400000	0.593076195213401	-0.574077163105066
302700000	0.3808702992722	-0.722769588047049
304000000	0.126322770094492	-0.798398617989337
305300000	-0.144299236705589	-0.787645454957023
306600000	-0.399567623024406	-0.687894434932098
307900000	-0.608331443219602	-0.509276614480771
309200000	-0.745269626682306	-0.273971318798613
310500000	-0.797929393109896	-0.0115213283365482
311800000	-0.765600790603606	0.247237176112252
313100000	-0.65843870581259	0.475829046495781
314400000	-0.493613736663901	0.655731604926816
315700000	-0.291208535617153	0.775519596934526
317000000	-0.0711510136992122	0.832093132880312
318300000	0.14926461187932	0.826669906885478
319600000	0.355541666178189	0.765008468165944
320900000	0.535714431138784	0.653808884525317
322200000	0.680171786286332	0.502090065008928
323500000	0.781152461855072	0.318772024839198
324800000	0.833103111787251	0.114523912145458
326100000	0.830405004202622	-0.0995687032563704
327400000	0.770783751703761	-0.310385394395547
328700000	0.653554528111595	-0.502840085280655
330000000	0.481844920242395	-0.660592694296922
331300000	0.264050076719255	-0.76636325971802
332600000	0.0156175015889302	-0.803918596558051
333900000	-0.241168067307875	-0.761154325643666
335200000	-0.477281254817554	-0.634551148193082
336500000	-0.662407003858759	-0.433532200515595
337800000	-0.770455986017564	-0.179420735983786
339100000	-0.786321569473273	0.095737097567117
340400000	-0.709420005879899	0.357130745223014
341700000	-0.553761108570469	0.573337586189109
343000000	-0.342316466816189	0.722800413921406
344300000	-0.10267359553897	0.796573620178764
345600000	0.14015878304178	0.793429713470392
346900000	0.364335347451783	0.721461799278469
348200000	0.553638652766368	0.591613786409546
349500000	0.696389543518901	0.417557135560147
350800000	0.785204053191684	0.213025930943557
352100000	0.814241900440906	-0.00714192016856955
353400000	0.782659887740836	-0.227502558449889
354700000	0.69087884275261	-0.4332427778391
356000000	0.542953064928832	-0.608505737954955
357300000	0.347440844390555	-0.737317841764344
358600000	0.117246066921798	-0.805510636862786
359900000	-0.12875179134935	-0.801990540621123
361200000	-0.367669354932907	-0.721824300509069
362500000	-0.573201097154735	-0.567784623841862
363800000	-0.720699002546177	-0.353580779278288
365100000	-0.791816633611338	-0.101639720720236
366400000	-0.778106564372539	0.159182237746102
367700000	-0.681849165653965	0.39959282688944
369000000	-0.517351536791306	0.593922360260697
370300000	-0.304523808554167	0.724998792069633
371600000	-0.0675389355136029	0.783550134735427
372900000	0.171248109117808	0.76903306696278
374200000	0.390692718718865	0.686900701543856
375500000	0.574733688323153	0.547675736384138
376800000	0.710267597821487	0.363844010536784
378100000	0.788371278174077	0.150143088369227
379400000	0.803360833341226	-0.0764457052703766
380700000	0.753529229656795	-0.299974971204858
382000000	0.640759212782909	-0.50213317799074
383300000	0.471993590493515	-0.665650436259895
384600000	0.259255320295568	-0.773797565400201
385900000	0.0195537264558789	-0.814144607038764
387200000	-0.224419517517366	-0.779340442670322
388500000	-0.448646368961801	-0.669761642631659
389800000	-0.628643328351967	-0.494606873449797
391100000	-0.745845905461433	-0.272270475924505
392400000	-0.788001408471256	-0.0258746177738071
393700000	-0.752992292317577	0.218799742879912
395000000	-0.64731523833727	0.438050941460842
396300000	-0.483978186008474	0.612571532606352
397600000	-0.280918407881564	0.729439243152938
398900000	-0.0569771142838851	0.782472423085253
400200000	0.168623472588433	0.770151818680931
401500000	0.379314489412031	0.69647276740797
402800000	0.56008933570466	0.568991420453239
404100000	0.69848330337673	0.397024297614691
405400000	0.784513518290346	0.192488904530915
406700000	0.810096175902556	-0.0299524174905331
408000000	0.770725370220847	-0.254188095514698
409300000	0.665942489887716	-0.461769815575625
410600000	0.500479661494139	-0.632809339081969
411900000	0.285534257154509	-0.74865217122551
413200000	0.0392040293333356	-0.792685468710002
414500000	-0.213472199079681	-0.755198439469984
415800000	-0.443456092709476	-0.636839146463666
417100000	-0.623892830120028	-0.448385270873492
418400000	-0.732660139543374	-0.211984458498438
419700000	-0.758627411423711	0.044268619859769
421000000	-0.702298013500492	0.291175852810664
422300000	-0.574152642991889	0.503046104417162
423600000	-0.392591324202266	0.661680402193276
424900000	-0.177705068915554	0.756002939242026
426200000	0.0493237187988438	0.783450853240414
427500000	0.269470635761431	0.745346269970681
428800000	0.467042105479101	0.649202727109889
430100000	0.628547691462635	0.50373090702623
431400000	0.743318452695371	0.320080249830953
432700000	0.803344074899195	0.111537754469055
434000000	0.803305167816251	-0.108206812953506
435300000	0.740248524116675	-0.322156367655261
436600000	0.616006705508939	-0.513895508412514
437900000	0.436559979637112	-0.664447247542627
439200000	0.214396118272159	-0.75669196404228
440500000	-0.0309526235103427	-0.777281989007472
441800000	-0.275082235974707	-0.718849334441644
443100000	-0.491100317790729	-0.584162947181975
444400000	-0.653256568517491	-0.386326621046212
445700000	-0.743501083533335	-0.148426908476788
447000000	-0.75368246400599	0.102466527569374
448300000	-0.686908925218098	0.338721662654823
449600000	-0.554857890700079	0.537673065796546
450900000	-0.375833036740321	0.684229813094384
452200000	-0.169519098834725	0.769875423860004
453500000	0.046040813417618	0.794349233961809
454800000	0.253955625395854	0.760566973488899
456100000	0.441602599232452	0.67497931053613
457400000	0.597958093485288	0.545259863597376
458700000	0.715392557629258	0.380957432782436
460000000	0.786748343123131	0.191699449482388
461300000	0.806994793184863	-0.0115587042023542
462600000	0.772644291425173	-0.216948011214322
463900000	0.682378274920674	-0.41117225703819
465200000	0.53722623904411	-0.578384825154393
466500000	0.342768974938096	-0.70101213661553
467800000	0.111894893807785	-0.762486493273626
469100000	-0.135808959567006	-0.748774442029873
470400000	-0.37418022194194	-0.653219567980551
471700000	-0.571657663259532	-0.479742767922554
473000000	-0.700842538353831	-0.246103063961153
474300000	-0.742062461835076	0.017406506220887
475600000	-0.691299048801251	0.276306757471249
476900000	-0.559485842474766	0.498020803087278
478200000	-0.368464716283247	0.658763022590604
479500000	-0.14372381188208	0.747390850996747
480800000	0.08816795345621	0.762782469369388
482100000	0.306532523170233	0.71076816500156
483400000	0.494887546612829	0.601568054909903
484700000	0.64230406883199	0.448239523792602
486000000	0.741025267824769	0.2629889062332
487300000	0.786498930279921	0.0595528339382853
488600000	0.775257094950791	-0.148676614790194
489900000	0.707627119062963	-0.349125897838624
491200000	0.585652000371428	-0.526396983540527
492500000	0.414933308130732	-0.666064380594122
493800000	0.205356764194874	-0.75349337171002
495100000	-0.0275902552402799	-0.775416640796006
496400000	-0.262564437048242	-0.723975412844203
497700000	-0.474652152918194	-0.598315932120057
499000000	-0.638337730859636	-0.408050843973497
500300000	-0.732065370269941	-0.172351527568528
501600000	-0.743205132294538	0.0811263148330102
502900000	-0.671325005801567	0.322595665618984
504200000	-0.527879813469575	0.524450165238778
505500000	-0.3316091729789	0.667303348074479
506800000	-0.106811150234727	0.740387538052703
508100000	0.123195656943223	0.742197217302754
509400000	0.338529304992333	0.677608579065226
510700000	0.522524703120506	0.556366950482306
512000000	0.662608016587376	0.390274446722222
513300000	0.749539043638172	0.193261198196071
514600000	0.778249275023012	-0.0199910951585159
515900000	0.745762933245274	-0.234110009450318
517200000	0.653197003438417	-0.432616781309523
518500000	0.504989654845419	-0.598967836148875
519800000	0.311371179711658	-0.717129265703942
521100000	0.086316647426032	-0.773365727685354
522400000	-0.149713486931739	-0.7583483660553
523700000	-0.373012986801687	-0.669160022742629
525000000	-0.559440535292594	-0.512787313116259
526300000	-0.687775863020412	-0.304274765035485
527600000	-0.743155273132566	-0.0659049648600592
528900000	-0.721107851333422	0.175465496087926
530200000	-0.626463418027554	0.394957350760437
531500000	-0.472066843288255	0.571852996172158
532800000	-0.27649145808355	0.691622432132944
534100000	-0.0589449541910141	0.747688365777478
535400000	0.160553288466226	0.738790676092843
536700000	0.365437070108891	0.669814860780907
538000000	0.540447998588161	0.547827726284325
539300000	0.674053833896422	0.383648593757994
540600000	0.757362786595138	0.189470159271843
541900000	0.78347972865608	-0.0214520823999074
543200000	0.749714014974754	-0.23339513433461
544500000	0.656047140560237	-0.430157722126498
545800000	0.506487725269466	-0.5945381345462
547100000	0.311269612248129	-0.710483976883753
548400000	0.0855855976498403	-0.763000709340574
549700000	-0.149991828259064	-0.744455065296767
551000000	-0.37147780037755	-0.65198581556586
552300000	-0.55459024959971	-0.493990089347849
553600000	-0.678809130377627	-0.285034755164578
554900000	-0.731167368751666	-0.0491601440043392
556200000	-0.708024817299922	0.188528948366474
557500000	-0.61419418503169	0.403536694863087
558800000	-0.463631352515733	0.577120348193236
560100000	-0.272661130248817	0.695339704235199
561400000	-0.061386075812182	0.752485531179205
562700000	0.153296303803677	0.747232976794881
564000000	0.353879938547848	0.683800742220613
565300000	0.527451152715304	0.569503920915397
566600000	0.6619952175601	0.413543077448523
567900000	0.749559295227679	0.226343467039554
569200000	0.782387044053745	0.0210323603109686
570500000	0.757207800800439	-0.187910317488549
571800000	0.672488917331018	-0.385376210952075
573100000	0.531662960565204	-0.553855480460195
574400000	0.342670455962001	-0.677510113194455
575700000	0.11947160602119	-0.739935939688923
577000000	-0.118184531391858	-0.730495220861998
578300000	-0.34436567434184	-0.645470067209516
579600000	-0.534231912919213	-0.48993205887221
580900000	-0.665090445096404	-0.281089362302123
582200000	-0.720956021689379	-0.0419998954428197
583500000	-0.697955033536232	0.198839158355206
584800000	-0.602288751774672	0.415959468131783
586100000	-0.448172157273974	0.588150747370817
587400000	-0.255486994616727	0.702970258752285
588700000	-0.0435409026986541	0.754252548682375
590000000	0.168093129491203	0.743049185874121
591300000	0.364367831648157	0.675153982767056
592600000	0.531383078984686	0.557101846196101
593900000	0.65951808812514	0.399120658958922
595200000	0.739601619992511	0.212092865391097
596500000	0.766059843476862	0.00839181112309844
597800000	0.73415717147085	-0.199072209066017
599100000	0.64263423677301	-0.393879461412539
600400000	0.493562114866373	-0.558998792727218
601700000	0.294751560463895	-0.67483988322002
603000000	0.0616133134131317	-0.725371671236992
604300000	-0.182262064039636	-0.696561724461574
605600000	-0.408533539984836	-0.586381832322379
606900000	-0.586515534878687	-0.404820832602244
608200000	-0.692422169243284	-0.174017667395179
609500000	-0.714673037627141	0.0749205281010012
610800000	-0.655765158284061	0.31115688412715
612100000	-0.529146954074928	0.509034793007599
613400000	-0.355691955557631	0.651823176456839
614700000	-0.15684508028038	0.733981862742119
616000000	0.0483564396808631	0.756011157096965
617300000	0.2445805219953	0.723589693454826
618600000	0.419293801428576	0.643386318858508
619900000	0.565377561914613	0.524076833482142
621200000	0.675361908343014	0.374025248063848
622500000	0.744849757823691	0.20073452459748
623800000	0.769082022192062	0.0134249264763143
625100000	0.743676224436235	-0.178763481022818
626400000	0.665310447719128	-0.363916380856049
627700000	0.531696144323276	-0.527395241391889
629000000	0.346072931961953	-0.651024197233121
630300000	0.117147910501051	-0.713534284766385
631600000	-0.132629098642104	-0.694935032726466
632900000	-0.372290156597588	-0.583573423764047
634200000	-0.560136706989039	-0.384543777112261
635500000	-0.659656658444746	-0.124500877133014
636800000	-0.652288070993004	0.152084801447227
638100000	-0.544728942329236	0.398730496530336
639400000	-0.363329657518112	0.58156575785482
640700000	-0.143438385305349	0.684638490000056
642000000	0.0842576219203807	0.709842577693337
643300000	0.295113781986566	0.667917629580823
644600000	0.475002498631106	0.573920027510796
645900000	0.616191276201326	0.441853562292404
647200000	0.715488274657427	0.283942814139363
648500000	0.771370333038674	0.111723342731434
649800000	0.784394627597574	-0.0668422557019006
651100000	0.754802056449797	-0.242542247358055
652400000	0.683774092410444	-0.406987506101503
653700000	0.573497278125642	-0.552721779340757
655000000	0.426937144121353	-0.670051823758056
656300000	0.249557078320981	-0.748623610762019
657600000	0.0496160165571152	-0.779679356459523
658900000	-0.158728064062554	-0.753105658243966
660200000	-0.359160220656447	-0.664094584053567
661500000	-0.530555535793331	-0.514275484897154
662800000	-0.651086970061059	-0.311727779713945
664100000	-0.701790442891834	-0.0765785645392044
665400000	-0.673767629823847	0.165143094897495
666700000	-0.56829605601813	0.384529413043007
668000000	-0.399432733090354	0.556320191497385
669300000	-0.188933157380377	0.662664663973755
670600000	0.0382066604107369	0.696732348064402
671900000	0.258025345342034	0.660781708693361
673200000	0.451850399528361	0.5640224745232
674500000	0.604804513474815	0.41858394437369
675800000	0.708404045699673	0.239292778583842
677100000	0.756817431410929	0.0411464183861384
678400000	0.747716065289475	-0.161639314565652
679700000	0.682581327326519	-0.354415500924292
681000000	0.564754873385041	-0.522649307153804
682300000	0.400829090061099	-0.652647547916737
683600000	0.202124632801088	-0.731241502292562
684900000	-0.0161374032141455	-0.748536206689916
686200000	-0.234740713596527	-0.697179101051076
687500000	-0.431749953871748	-0.578705218280858
688800000	-0.583746792026598	-0.400910990149693
690100000	-0.673348533677092	-0.182390906096877
691400000	-0.688186907194336	0.0543142233116877
692700000	-0.627948278968603	0.281704013090062
694000000	-0.501662217466422	0.475442014476043
695300000	-0.325353380582912	0.618030202060379
696600000	-0.120185643558019	0.698458686369447
697900000	0.0938342767899036	0.714954969975526
699200000	0.297713504883729	0.670387981668888
700500000	0.476137069249342	0.573621658392475
701800000	0.618200796717679	0.434649789460993
703100000	0.715979074701841	0.265335852854053
704400000	0.764555942490117	0.0769739935113095
705700000	0.761226481225783	-0.117360516119784
707000000	0.704364364755306	-0.305688289989453
708300000	0.596771192576161	-0.474385448005156
709600000	0.44257931291989	-0.60933925734884
710900000	0.250674289255747	-0.697605787334436
712200000	0.0343110766769495	-0.726199941790532
713500000	-0.188357720273936	-0.685733094833152
714800000	-0.393205817148051	-0.573715508284936
716100000	-0.555327346562819	-0.396800952306272
717400000	-0.651074416363717	-0.172295491195759
718700000	-0.665703986052375	0.0733184299907062
720000000	-0.597178884046288	0.308224124598579
721300000	-0.456133217087158	0.504024924953915
722600000	-0.263566800380319	0.638998448192401
723900000	-0.0456014646163649	0.70350733944037
725200000	0.173929307702304	0.697227915757716
726500000	0.373653570717675	0.628474190445194
727800000	0.539872562505702	0.508962738394055
729100000	0.661658339780025	0.352184514379597
730400000	0.735265098514609	0.172294733314811
731700000	0.756790102204088	-0.0189894346144148
733000000	0.727523473387269	-0.207906204182219
734300000	0.64900025189967	-0.38358180961705
735600000	0.524554361600585	-0.534330781565263
736900000	0.360013601896495	-0.647399871308841
738200000	0.16459696362704	-0.712447989277539
739500000	-0.047837856292838	-0.718818229850528
740800000	-0.260522038505285	-0.658565184422505
742100000	-0.450842409457038	-0.530559029842594
743400000	-0.594060883659618	-0.342014498925864
744700000	-0.667952765315129	-0.110952213031528
746000000	-0.658573042220763	0.135271556006134
747300000	-0.564526320653298	0.363553863231766
