!Agilent N9923A: A.05.17
!Date: Sunday, 01 January 2006 12:28:38
!Model: N9923A
!Serial: MY50371189
!CHECKSUM:0036679561
!Correction: S11(ON U)
!S1P File: Measurement: S11:
# Hz S RI R 50
200000000	-0.0734836256203167	-0.577526034292742
201300000	-0.484400757884348	-0.330443816527914
202600000	-0.584483084561571	0.128282201194957
203900000	-0.336147073283014	0.507064659181181
205200000	0.0937617108115555	0.602456927330695
206500000	0.468952387320517	0.377661095503967
207800000	0.587077623789257	-0.0525898856976002
209100000	0.358332346705672	-0.453138786429839
210400000	-0.100924067255848	-0.566359444117305
211700000	-0.496662341328452	-0.306856426292307
213000000	-0.578242002358095	0.145274058209727
214300000	-0.328038503333152	0.507829616970313
215600000	0.088882899489576	0.598915107463384
216900000	0.455878915488206	0.387354791880548
218200000	0.585227432801665	-0.0262002798671556
219500000	0.38086214703104	-0.428093307883335
220800000	-0.0652641112318462	-0.563019425501173
222100000	-0.468455597933174	-0.322991090306811
223400000	-0.563122278140454	0.124123410296304
224700000	-0.318560743621436	0.489032114337688
226000000	0.097032780662219	0.577937885721835
227300000	0.458501134642694	0.360143176731364
228600000	0.571875809113121	-0.0566739975717641
229900000	0.347717720403129	-0.445633037065118
231200000	-0.103007509812271	-0.55100399965297
232500000	-0.484088818253939	-0.288332059334632
233800000	-0.550358792705192	0.154957653605209
235100000	-0.297757215972283	0.499626206747324
236400000	0.105629557895698	0.578321324340861
237700000	0.456065215576135	0.371630273585833
239000000	0.581033444450329	-0.0255148237574583
240300000	0.388048007186351	-0.415310570912427
241600000	-0.0436479737182509	-0.551639336652714
242900000	-0.440139433387354	-0.319858855332043
244200000	-0.532420708902043	0.12003807405111
245500000	-0.289241210158559	0.474951278044102
246800000	0.116922914619339	0.555643989496897
248100000	0.463456015274577	0.339676003345555
249400000	0.56867841953718	-0.0625476209402721
250700000	0.352724943017071	-0.435656818123329
252000000	-0.0807561337306863	-0.538519616812451
253300000	-0.451760322780104	-0.286221372666247
254600000	-0.518094145890793	0.146289619536092
255900000	-0.268479708541506	0.482887319060821
257200000	0.129451351841428	0.553451932530413
258500000	0.467570410065551	0.340212534309
259800000	0.573777286983554	-0.0531479169489072
261100000	0.369351559215026	-0.422529061960278
262400000	-0.0521653421198901	-0.536569863636418
263700000	-0.42672414910035	-0.303298806415154
265000000	-0.51166405428392	0.11947098794489
266300000	-0.280324582659816	0.463580258001909
267600000	0.110957881962698	0.550018424765685
268900000	0.453404413927295	0.35077599294255
270200000	0.570114068154478	-0.0349137894304855
271500000	0.376877117467207	-0.404597281987953
272800000	-0.0365166109582375	-0.525701606159534
274100000	-0.409247311476728	-0.302834761280996
275400000	-0.499650847149739	0.112673733444243
276700000	-0.274522027135865	0.45486537887357
278000000	0.113383937665208	0.54106939667159
279300000	0.451085095359543	0.338914224305546
280600000	0.555952139258724	-0.0483456510631684
281900000	0.347381682391859	-0.407749859790243
283200000	-0.0689306605790014	-0.504622032490912
284500000	-0.422494532006989	-0.263201387585525
285800000	-0.487065129303474	0.149093908450485
287100000	-0.250049302409746	0.472599476137302
288400000	0.132371672616067	0.541607720835846
289700000	0.457503915460654	0.333123901967267
291000000	0.552639333253215	-0.0493230017456312
292300000	0.343092758715202	-0.400471896674428
293600000	-0.0668644935093557	-0.494462278942908
294900000	-0.416126503712346	-0.257860255237545
296200000	-0.483307556817367	0.147456105183722
297500000	-0.254089258292875	0.468604311152191
298800000	0.121100990558712	0.541538910111525
300100000	0.443806614673054	0.341394858604678
301400000	0.543224580360701	-0.0333367683880409
302700000	0.344024996074532	-0.382724501764822
304000000	-0.0579044358797882	-0.484484896900237
305300000	-0.407894137400817	-0.260509725842464
306600000	-0.486623335058441	0.13599795576708
307900000	-0.273729256661145	0.45946292796361
309200000	0.0905168001234585	0.547178442440382
310500000	0.416151722314896	0.367274055919127
311800000	0.533063719330799	0.00440957113068423
313100000	0.352653525094978	-0.350215131899775
314400000	-0.0430631062323564	-0.465508101349242
315700000	-0.396253907005052	-0.248076737205599
317000000	-0.47399014520688	0.147036122819593
318300000	-0.258410728145224	0.463382037508264
319600000	0.100292874769806	0.54261923002072
320900000	0.415238145738982	0.361432616225479
322200000	0.527262904674437	0.00699503871018811
323500000	0.351681901689526	-0.340413322370051
324800000	-0.0381473692628613	-0.456211468384457
326100000	-0.388925678399016	-0.240175418892066
327400000	-0.461863732766418	0.154147615398864
328700000	-0.239489080462271	0.464018816864198
330000000	0.117760548176731	0.53051859176906
331300000	0.421648392775044	0.343884572568013
332600000	0.524821231746625	-0.00332207389725711
333900000	0.356946706460277	-0.34108091472203
335200000	-0.0167996601270506	-0.465650660289969
336500000	-0.370786658301784	-0.275898743581601
337800000	-0.471846008850245	0.10546927377534
339100000	-0.276794723570631	0.429432873491172
340400000	0.0734125056912474	0.522354080410721
341700000	0.387338243719392	0.355759884229631
343000000	0.505831805008229	0.0149139925081522
344300000	0.346368945352511	-0.325035542879405
345600000	-0.0258393623023182	-0.448119432218705
346900000	-0.371781085305348	-0.248492580382091
348200000	-0.448508651957787	0.135428478657003
349500000	-0.229635385185377	0.438851834481923
350800000	0.125225067855629	0.495984941133935
352100000	0.41687282827439	0.296767084385501
353400000	0.495073242648919	-0.0536726988178577
354700000	0.300461875947689	-0.372010968429963
356000000	-0.0755112438112089	-0.46046556651232
357300000	-0.402093630199859	-0.249025204198757
358600000	-0.476878522911973	0.122412315714345
359900000	-0.282669937103847	0.426907688399553
361200000	0.051383378848567	0.519067917624026
362500000	0.358571059050273	0.36963287433467
363800000	0.48956768998858	0.046013304769819
365100000	0.350204031607036	-0.293067086823118
366400000	-0.0112184260055403	-0.426814666625243
367700000	-0.353513941282496	-0.234990754004201
369000000	-0.428148489911111	0.140216332164683
370300000	-0.216331656552938	0.433655894257628
371600000	0.121857864690959	0.493765685119604
372900000	0.406905781226096	0.317031758108125
374200000	0.504143455665295	-0.010046108464248
375500000	0.346077388323738	-0.329213043343935
376800000	-0.00964144931372323	-0.446106667355534
378100000	-0.343390446345677	-0.258003945674455
379400000	-0.425168832357986	0.110176827960549
380700000	-0.222989938453487	0.408350419374067
382000000	0.11409739113203	0.475980621935479
383300000	0.40069287595771	0.300872637402795
384600000	0.494498858361934	-0.0263580122327218
385900000	0.32976188535382	-0.339647113044992
387200000	-0.0244033324760539	-0.444580698845909
388500000	-0.347314394749571	-0.251733784555938
389800000	-0.422793047707511	0.109736315962623
391100000	-0.224603179056065	0.402503573765854
392400000	0.106160219336189	0.472065358144311
393700000	0.391719028421399	0.301671769621353
395000000	0.486687178274601	-0.0218898969986299
396300000	0.321935632632085	-0.332551247743238
397600000	-0.0307137986075061	-0.431423579294072
398900000	-0.346425394303337	-0.235577636345372
400200000	-0.415177364587067	0.121353513051409
401500000	-0.218913751741311	0.407062433136219
402800000	0.104921858398388	0.47700700632706
404100000	0.387114093491056	0.314995077026728
405400000	0.488122405153921	-0.000803563704644978
406700000	0.333206304641	-0.310801705291401
408000000	-0.013555542243188	-0.415973279704606
409300000	-0.328779966527852	-0.22545277058948
410600000	-0.39852895002797	0.127154604427005
411900000	-0.204757243394648	0.408825073640858
413200000	0.113300389925357	0.477894365196216
414500000	0.390589570163888	0.320657466808833
415800000	0.492616721652408	0.0119950520743687
417100000	0.344526715143311	-0.295200137000196
418400000	0.00289533918051125	-0.403480885415464
419700000	-0.311394365083484	-0.214950605423367
421000000	-0.377064830713996	0.137039057696492
422300000	-0.177580861872429	0.41170297165233
423600000	0.138296728037602	0.469026230325233
424900000	0.404603256127078	0.304783442399463
426200000	0.49496339098164	0.0017032571888085
427500000	0.347550555737455	-0.294813356996633
428800000	0.0161836958944603	-0.403782108358239
430100000	-0.297099310485129	-0.228703262875818
431400000	-0.376669974821697	0.116451065899317
432700000	-0.191330641584544	0.398570110175851
434000000	0.121238238517932	0.468824035461839
435300000	0.391178860819689	0.315499671563775
436600000	0.490937427329235	0.0195386524154489
437900000	0.356966228201412	-0.276651716730676
439200000	0.0375531642820273	-0.397360080250512
440500000	-0.277992406548285	-0.240898299043473
441800000	-0.372934945866463	0.0949612007353565
443100000	-0.200477646548171	0.381644706280995
444400000	0.108921850980356	0.459035362384738
445700000	0.378589561706868	0.306468295718301
447000000	0.472072457319658	0.00764035268874653
448300000	0.32547734049516	-0.282994003674131
449600000	-0.00029290070767095	-0.384660200001666
450900000	-0.302644211964954	-0.210639601233237
452200000	-0.37900135192013	0.123497631453657
453500000	-0.203165982569377	0.398014019985749
454800000	0.0961262016540263	0.473614691860797
456100000	0.361799301534712	0.334374693491247
457400000	0.468712289041008	0.0510561562467504
458700000	0.34794184504767	-0.240766125882898
460000000	0.0376375020406685	-0.364163321570424
461300000	-0.271844998625674	-0.210351973625826
462600000	-0.359095249517124	0.119780676164848
463900000	-0.185844590361182	0.394561206104428
465200000	0.112930381974735	0.46514152578464
466500000	0.372398295949079	0.322188253251495
467800000	0.473023279809236	0.0414516541742108
469100000	0.353715819555539	-0.244342353989942
470400000	0.0515551958538502	-0.370553882100848
471700000	-0.256747056600769	-0.229204439779761
473000000	-0.356180693090909	0.0923837665096515
474300000	-0.194168986458549	0.370464759932898
475600000	0.101189065107036	0.445854534743967
476900000	0.358846660699014	0.302652425461715
478200000	0.450483982476365	0.0204614873201796
479500000	0.315047292236865	-0.257693904910732
480800000	0.00453246786436841	-0.357966144894208
482100000	-0.286074909782196	-0.189903240720078
483400000	-0.354293917275075	0.133149790585141
484700000	-0.178193623189025	0.392011887354384
486000000	0.111022608348678	0.454061170950764
487300000	0.360050010513846	0.31348446031167
488600000	0.454925990588944	0.0417083614394705
489900000	0.332795314867157	-0.234914692003051
491200000	0.0304290521466816	-0.34471045377562
492500000	-0.261902075684772	-0.183261191329656
493800000	-0.327062500404011	0.140810179235714
495100000	-0.142396380359312	0.393091755299635
496400000	0.146794608544472	0.443113151699839
497700000	0.387038950600237	0.297897753555542
499000000	0.479938981364734	0.0328041793424028
500300000	0.374692564758583	-0.239777248667461
501600000	0.0953906637332792	-0.375405219757388
502900000	-0.210064951075743	-0.262826799166102
504200000	-0.33003136624048	0.0430266721637383
505500000	-0.186066559834673	0.325221013726883
506800000	0.10002710039299	0.410121627110091
508100000	0.352826662704172	0.278681036102647
509400000	0.447800972590686	0.011549189854384
510700000	0.329594097153917	-0.255571832447565
512000000	0.0417267226207591	-0.364978585587838
513300000	-0.244116263941972	-0.221274453911372
514600000	-0.326294254229186	0.0878410169334031
515900000	-0.161860129520275	0.347554349178718
517200000	0.121720506291403	0.412297941327121
518500000	0.364911413087802	0.273609340579933
519800000	0.453885705822214	0.00873039331356762
521100000	0.335435954064915	-0.255672345563086
522400000	0.0507019759748617	-0.364755453969691
523700000	-0.233219766840443	-0.222533185190985
525000000	-0.31445929133284	0.0843277125218005
526300000	-0.14894606427621	0.34097769425086
527600000	0.133118037770197	0.400899886029312
528900000	0.371080862664796	0.258948670721382
530200000	0.453615725120037	-0.00438990454536036
531500000	0.332664446340316	-0.262796409610513
532800000	0.051302340620319	-0.366532630750624
534100000	-0.226984647613902	-0.226588439555308
535400000	-0.308912131556208	0.0749040941942425
536700000	-0.147959518897406	0.329921612097902
538000000	0.13195480337184	0.390479982236134
539300000	0.36683753157138	0.246323265768906
540600000	0.441253693256418	-0.0178406595166119
541900000	0.308271734636912	-0.268464633806052
543200000	0.0233221108102135	-0.352827715138475
544500000	-0.24139525688055	-0.195189996120121
545800000	-0.301548167327202	0.106444797771859
547100000	-0.13060385597352	0.347872394644592
548400000	0.14588352829556	0.398846213867439
549700000	0.376055111041528	0.255913015027567
551000000	0.453734417383131	-0.00293408249149352
552300000	0.333218746593396	-0.253840585122077
553600000	0.0581546570488303	-0.35279930534904
554900000	-0.212411349048725	-0.215684408518521
556200000	-0.29201725410547	0.0784171854629241
557500000	-0.134277932795027	0.32706877408344
558800000	0.139557008523577	0.386295070863008
560100000	0.370241961919842	0.245938032829276
561400000	0.445225444846912	-0.0118632763754501
562700000	0.32138562386981	-0.258980714234474
564000000	0.0484989996780225	-0.353579799500247
565300000	-0.218172649126074	-0.218658214165312
566600000	-0.302332098150521	0.069265660613891
567900000	-0.157365686156921	0.320579484459371
569200000	0.10951464292625	0.392955451810484
570500000	0.344532360694226	0.266945797740426
571800000	0.430214138219294	0.015878609937213
573100000	0.314943222762009	-0.231592337397692
574400000	0.0451889154640943	-0.327250847873068
575700000	-0.215894691855216	-0.188748820340659
577000000	-0.288802069899137	0.0972537804561858
578300000	-0.135575192979467	0.337242349823675
579600000	0.128340309960036	0.398081728831191
580900000	0.355073815713895	0.268269372893857
582200000	0.436710429164282	0.0203822787609076
583500000	0.324828924485439	-0.224811952359144
584800000	0.0599608039587599	-0.324325545897585
586100000	-0.203462897346925	-0.19315825267872
587400000	-0.280333646755486	0.092065281918855
588700000	-0.127565825284432	0.331458142071486
590000000	0.136169082024787	0.387168512289598
591300000	0.357308101379461	0.252001445784697
592600000	0.430187430197281	0.00466484516403919
593900000	0.3133701494273	-0.233944027995268
595200000	0.0520761359856195	-0.329482047778535
596500000	-0.207862222337051	-0.204305399727522
597800000	-0.29585767585482	0.0710295192532803
599100000	-0.163250023880856	0.316850480444829
600400000	0.0903025318328844	0.394911536514654
601700000	0.32021650312981	0.284126658568842
603000000	0.414677151519252	0.0482386910507302
604300000	0.318330386517128	-0.195470708446655
605600000	0.0645216570379677	-0.302104937468746
606900000	-0.194934562817297	-0.18129457892451
608200000	-0.27462577747792	0.0929765628618226
609500000	-0.132702241194099	0.327209843273007
610800000	0.118667889532137	0.389386067092878
612100000	0.337621606561877	0.269536596747939
613400000	0.420710554774765	0.0351893201192398
614700000	0.320657401063176	-0.201817298135018
616000000	0.0683636746094441	-0.304896441965082
617300000	-0.188520161195347	-0.183592324439758
618600000	-0.266946640309519	0.0906136643832421
619900000	-0.123311673883853	0.323416214701027
621200000	0.127280765274299	0.382942693941662
622500000	0.342876822175301	0.264686973835505
623800000	0.42976563381238	0.0372149675446068
625100000	0.343112422965662	-0.198255746674007
626400000	0.106785941784174	-0.317402476296342
627700000	-0.154921428392763	-0.224979287439682
629000000	-0.26162528256444	0.0345820370207431
630300000	-0.142524080257643	0.278687764818398
631600000	0.102505336148649	0.354920886223237
632900000	0.321475030094603	0.243436153197486
634200000	0.404693024239457	0.014495312706648
635500000	0.305029089142845	-0.216270408817861
636800000	0.0584805813862929	-0.31447607000132
638100000	-0.192978293703992	-0.195918665308564
639400000	-0.273887045713718	0.0715503967717684
640700000	-0.14062182983331	0.304661528193226
642000000	0.103222266339729	0.374715182431754
643300000	0.320636006401805	0.268935184299589
644600000	0.41410427204845	0.0493066427924124
645900000	0.333980891467555	-0.182116447259395
647200000	0.101495812037968	-0.296353807366451
648500000	-0.150233247976705	-0.194536846981605
649800000	-0.236326542466269	0.0647361086175433
651100000	-0.103347131018163	0.291749837322963
652400000	0.13824855530162	0.351224880391001
653700000	0.345300931779076	0.235426599512163
655000000	0.423408517603478	0.0135460784416009
656300000	0.330188649839438	-0.210534195784443
657600000	0.0941338158597001	-0.313226356999051
658900000	-0.15345618313292	-0.206319572530033
660200000	-0.24017842139554	0.0525561116019073
661500000	-0.112655942376742	0.283329517122811
662800000	0.125301103696882	0.352559977972609
664100000	0.336791420322672	0.249466804111311
665400000	0.426794178356721	0.0360249233479029
666700000	0.350434439575933	-0.188144580109926
668000000	0.1272140971868	-0.300881865743842
669300000	-0.119288960032861	-0.206996203186291
670600000	-0.207654694881296	0.0462152319544132
671900000	-0.0770687326886702	0.270690924463975
673200000	0.162122657415872	0.325966912866346
674500000	0.362866397936083	0.205966297878224
675800000	0.43146290344076	-0.0139918187356844
677100000	0.333886904389939	-0.229498911892647
678400000	0.102597138376364	-0.323769383794355
679700000	-0.137404470864419	-0.218089052137256
681000000	-0.222001602910461	0.0348777423159886
682300000	-0.0954698454142472	0.260882991448177
683600000	0.140749866744927	0.322928217883414
684900000	0.344425938460673	0.209458095648105
686200000	0.414819955562708	-0.00822945427411359
687500000	0.315802251449811	-0.221328612698242
688800000	0.0847469100961328	-0.307779446893837
690100000	-0.148620534532216	-0.195244877922644
691400000	-0.2256934155057	0.0568668943881748
692700000	-0.098869157862885	0.279632485019595
694000000	0.134318267693713	0.346654209860323
695300000	0.341908713916057	0.245037659409437
696600000	0.429930243019624	0.0356541818234218
697900000	0.35617020591497	-0.182980076016959
699200000	0.14222864781583	-0.296066837059953
700500000	-0.0993076421770705	-0.214817858114173
701800000	-0.200171948882627	0.0234757334351152
703100000	-0.092315540808354	0.250997049399282
704400000	0.134498456231891	0.324110522552997
705700000	0.337376268609034	0.223037608153127
707000000	0.415573341358211	0.0157917856853091
708300000	0.329814556868655	-0.193936657220433
709600000	0.111252885652695	-0.288180128572036
710900000	-0.118813526436215	-0.188698372045787
712200000	-0.198183950594535	0.0542597412006406
713500000	-0.073934220557665	0.26968138052711
714800000	0.15565592874192	0.327136735536064
716100000	0.350818051495165	0.21682780056968
717400000	0.423502523654904	0.00893021153168166
718700000	0.339198715314467	-0.199588315291719
720000000	0.126710266796136	-0.301988906172698
721300000	-0.107382505551957	-0.221617419854411
722600000	-0.211485601208713	0.00901843504904539
723900000	-0.113596967645934	0.237189447998139
725200000	0.10787100122782	0.317919485457776
726500000	0.309991479210195	0.222194610425798
727800000	0.387399394711458	0.0179589463446276
729100000	0.299298200642817	-0.186681020466931
730400000	0.0819618289980246	-0.271872254484453
731700000	-0.138464053135634	-0.167602530585692
733000000	-0.210981853242977	0.0699071392281151
734300000	-0.0893994762919864	0.279469001293418
735600000	0.13325260299098	0.338085218921382
736900000	0.327182391154644	0.235186967065299
738200000	0.403593940275768	0.033247816894969
739500000	0.324906054989708	-0.172252224369589
740800000	0.116615035731598	-0.271907310425636
742100000	-0.110665544797377	-0.186546538355515
743400000	-0.199397742143661	0.0442942104594081
744700000	-0.0880277380865577	0.258227232292378
746000000	0.131511673342631	0.320441847744128
