!Agilent N9923A: A.05.17
!Date: Sunday, 01 January 2006 12:25:34
!Model: N9923A
!Serial: MY50371189
!CHECKSUM:1523224099
!Correction: S11(ON U)
!S1P File: Measurement: S11:
# Hz S RI R 50
200000000	0.696085043438083	0.490838679831948
201300000	0.804412666051387	0.273058192346287
202600000	0.847516304496528	0.0321509319584057
203900000	0.81968948638537	-0.213238457862601
205200000	0.720646961460131	-0.443594206496432
206500000	0.555729120737874	-0.638326821439452
207800000	0.336592035229438	-0.777210355978244
209100000	0.0804586810751437	-0.84427787507351
210400000	-0.186945627697768	-0.828259531579199
211700000	-0.43956076702936	-0.72776505202573
213000000	-0.647760448458339	-0.552054869782769
214300000	-0.788891501685419	-0.319336535719399
215600000	-0.848814388961277	-0.05685270803481
216900000	-0.82356658143059	0.207275660929869
218200000	-0.720106499959894	0.446120868214888
219500000	-0.553304808512094	0.638581666874397
220800000	-0.341063984586162	0.770469454879328
222100000	-0.105936366000334	0.834121256269089
223400000	0.133205891361302	0.829106754195891
224700000	0.358804798255364	0.758769573316874
226000000	0.554404339179789	0.630435003610044
227300000	0.707621630659439	0.454432425014728
228600000	0.806790738775859	0.243066876762838
229900000	0.844735864939411	0.011464045843634
231200000	0.816859831897279	-0.224758161068361
232500000	0.722434544487302	-0.447245032072898
233800000	0.565178390921948	-0.636940056859161
235100000	0.354759474115521	-0.775481933045072
236400000	0.107220184860699	-0.84611955984728
237700000	-0.155589449530756	-0.836913082563257
239000000	-0.405555352449542	-0.74456343302561
240300000	-0.615939836100538	-0.575569873371989
241600000	-0.761698588966482	-0.347891516656402
242900000	-0.827011083756604	-0.0858653057455479
244200000	-0.805911112528457	0.181036296542837
245500000	-0.703457874239553	0.424183878815281
246800000	-0.533817709714627	0.620672847243171
248100000	-0.316997310374242	0.754178717648861
249400000	-0.0742610221938596	0.814861287632439
250700000	0.171723843024303	0.802908766260982
252000000	0.400842136507585	0.720851967633469
253300000	0.595624251652457	0.577803548827168
254600000	0.74074828797472	0.385280294055805
255900000	0.824715224235738	0.158812978697062
257200000	0.840193411122967	-0.0839648172892368
258500000	0.783370633027321	-0.323233140502072
259800000	0.65691778681015	-0.538226515544043
261100000	0.46871840426884	-0.707747462785278
262400000	0.234710313017468	-0.813169426927762
263700000	-0.0237328158619042	-0.841959997560155
265000000	-0.279642098253548	-0.788298629466826
266300000	-0.507093417556055	-0.657691697762883
267600000	-0.682009679558362	-0.46346275395418
268900000	-0.787388803614547	-0.227116608328621
270200000	-0.815441471325994	0.0267398019069485
271500000	-0.767192189358763	0.27312835682196
272800000	-0.650723411823372	0.489959493884239
274100000	-0.480124550914503	0.660787672331432
275400000	-0.272387151942314	0.774056069398246
276700000	-0.0447180136267385	0.824257118559434
278000000	0.185625774776616	0.810051377060194
279300000	0.401504673523184	0.733871343906942
280600000	0.588265212596472	0.600942354422619
281900000	0.73196058375638	0.421198577978593
283200000	0.821165188264976	0.205488454049168
284500000	0.845848050558668	-0.0303668882316876
285800000	0.799949922348221	-0.268265242755031
287100000	0.68360043758691	-0.487303827211271
288400000	0.501733383173768	-0.664944523311286
289700000	0.269176921435216	-0.780363765099153
291000000	0.00744838797814124	-0.817326352534295
292300000	-0.255322598024333	-0.769009451074987
293600000	-0.489832136363214	-0.637763834715479
294900000	-0.669693962362928	-0.43937783187705
296200000	-0.775386095422225	-0.197032937415296
297500000	-0.799779169403289	0.0613155763811905
298800000	-0.745237378028488	0.308595249247857
300100000	-0.622583456375501	0.522529663454216
301400000	-0.448069538153668	0.686593146180099
302700000	-0.239992757764938	0.791540751925502
304000000	-0.016252540957922	0.833408005470605
305300000	0.20642919242533	0.81274619189155
306600000	0.413055152294099	0.733762489305792
307900000	0.589975450911583	0.602954509639637
309200000	0.725968042281615	0.428770236175455
310500000	0.810833458539776	0.221522912877779
311800000	0.835755984764356	-0.00531907055637218
313100000	0.794265230273743	-0.236393047184269
314400000	0.68446389251481	-0.452390194128652
315700000	0.508380444940647	-0.632125431565041
317000000	0.276427568134271	-0.751965788179253
318300000	0.0093713791624099	-0.792285632041686
319600000	-0.263187577470338	-0.739578531405829
320900000	-0.506251644311204	-0.594425189650929
322200000	-0.685353619279096	-0.372030902623866
323500000	-0.776068276150168	-0.103097298832193
324800000	-0.76862348945128	0.175768283411285
326100000	-0.670855649170842	0.428463641699909
327400000	-0.501618508990847	0.627801451725905
328700000	-0.286554275536726	0.759040671835788
330000000	-0.0517689727595366	0.816158701087341
331300000	0.18092143580551	0.802749049312616
332600000	0.39337341555062	0.726873942815941
333900000	0.572341968998311	0.599162917211145
335200000	0.708509139062957	0.43196394493302
336500000	0.795103969996249	0.236246771036305
337800000	0.828117636167407	0.0253949750254761
339100000	0.804868363710038	-0.188762989426856
340400000	0.724666177387374	-0.391997104881727
341700000	0.590392538632286	-0.570526571743182
343000000	0.40756741564169	-0.708994889182174
344300000	0.186354512175177	-0.792381334316265
345600000	-0.0565323766775686	-0.808688105086362
346900000	-0.300543563008686	-0.749528685955295
348200000	-0.519187006946472	-0.614439629822974
349500000	-0.686784236603769	-0.413295646051404
350800000	-0.78155065818439	-0.166733132678707
352100000	-0.791432966669792	0.0977477340417195
353400000	-0.715615278942718	0.348856379256589
354700000	-0.565972620298955	0.558988653989204
356000000	-0.362183035875202	0.70835670511587
357300000	-0.128401480744308	0.785783044637402
358600000	0.111443022573465	0.78964791410924
359900000	0.336497083564387	0.725304357048701
361200000	0.529399594957397	0.602029435175555
362500000	0.678115357367785	0.43234968120047
363800000	0.773791642824351	0.230716078503684
365100000	0.809978036278892	0.0108732912651595
366400000	0.784981521930679	-0.210918323135657
367700000	0.699037171088866	-0.419166684342172
369000000	0.556459383268454	-0.598039289769323
370300000	0.365591978629937	-0.731310389855311
371600000	0.139749863782519	-0.805304615075576
372900000	-0.102585986492894	-0.809037444421393
374200000	-0.33941224692789	-0.7383485478488
375500000	-0.545859704585688	-0.595947349691483
376800000	-0.699331243158325	-0.394233978191501
378100000	-0.781604844730535	-0.153573761458289
379400000	-0.784641252783089	0.100283632006651
380700000	-0.70905523386271	0.340037100215832
382000000	-0.564890029584552	0.542260563820097
383300000	-0.369332904606973	0.688801644164489
384600000	-0.142936203767643	0.76847277841117
385900000	0.092371371993474	0.777656802158806
387200000	0.3171402615874	0.719422332920116
388500000	0.513670730044465	0.600416430267932
389800000	0.667634402943301	0.431835925500999
391100000	0.766980625851778	0.226293516257128
392400000	0.803831365496556	0.000203970733528562
393700000	0.773806545823657	-0.229536986014113
395000000	0.676372188619627	-0.443352631639174
396300000	0.517212771940014	-0.621929741913549
397600000	0.307415024617822	-0.746068692628325
398900000	0.0650424739256713	-0.800450196437427
400200000	-0.186336483391385	-0.775435796284357
401500000	-0.418747465132645	-0.670984371909914
402800000	-0.607056522335126	-0.496928872617322
404100000	-0.729585060244492	-0.272182553016885
405400000	-0.7739860768342	-0.0230374039440309
406700000	-0.738852326485215	0.223755840297702
408000000	-0.632342207687819	0.443377133811348
409300000	-0.468616968285933	0.616935550266225
410600000	-0.266812228437888	0.731973425119638
411900000	-0.0451351779024833	0.783393640050466
413200000	0.176584831600685	0.771187050112847
414500000	0.383070554622352	0.699988865761725
415800000	0.560535684817576	0.576538495176099
417100000	0.697471623793642	0.410686049547576
418400000	0.784552077449572	0.213764297507142
419700000	0.815045284021114	-0.00162318396719853
421000000	0.784330578100145	-0.22021367934128
422300000	0.691800264463414	-0.425374235309334
423600000	0.540231377124107	-0.599107571398615
424900000	0.339449568606874	-0.724270577847373
426200000	0.103945655911108	-0.784226063537167
427500000	-0.143915895549621	-0.76824807606028
428800000	-0.378590257040934	-0.673564356990154
430100000	-0.572844030979474	-0.507407569262161
431400000	-0.703474011993549	-0.286719336388563
432700000	-0.75680972545178	-0.0369443375244265
434000000	-0.727960715573401	0.212873889700856
435300000	-0.624505683877236	0.436934017568145
436600000	-0.461712212283989	0.614135837716762
437900000	-0.258739615452522	0.731450647411514
439200000	-0.0363689249953183	0.782740088000725
440500000	0.186058618171459	0.768377960581559
441800000	0.392311412273981	0.693457951438734
443100000	0.566742439192264	0.565570459142359
444400000	0.699242953802325	0.394983383993613
445700000	0.779201392259479	0.193726596344424
447000000	0.800240299934808	-0.0248191981851823
448300000	0.757339972126285	-0.244568129051949
449600000	0.649437937514814	-0.448049223288897
450900000	0.480488253926686	-0.614834332984999
452200000	0.260919563755568	-0.725322156010396
453500000	0.00991677214507547	-0.760802958361948
454800000	-0.246140005257207	-0.710699848909917
456100000	-0.474787021374931	-0.574674267703394
457400000	-0.644866335037682	-0.366916515903405
458700000	-0.733430156657494	-0.11475515352377
460000000	-0.731718512110084	0.148759842780723
461300000	-0.644639656981565	0.390025449964293
462600000	-0.489899586312188	0.58373653224787
463900000	-0.290488822436874	0.714200235827271
465200000	-0.0696158851826137	0.776339612451988
466500000	0.150830052953301	0.772765455904092
467800000	0.354647625324261	0.709433401340759
469100000	0.529430871045691	0.597198751036371
470400000	0.6655804841977	0.44620150155771
471700000	0.757480876790049	0.266768954261815
473000000	0.800078562911785	0.0705708610312102
474300000	0.790671616546169	-0.131984705545977
475600000	0.728551287786973	-0.327974649995164
476900000	0.614327776289772	-0.504783280800129
478200000	0.451144968081884	-0.648484222832932
479500000	0.24843679366907	-0.743362230489616
480800000	0.0187562922494227	-0.776756325107985
482100000	-0.218044486005032	-0.738386155174101
483400000	-0.437755084057537	-0.625185887762312
484700000	-0.613979467876992	-0.444006466478722
486000000	-0.72297609303297	-0.212388263613675
487300000	-0.749657527383283	0.0428739828227279
488600000	-0.691624739434854	0.290689181241683
489900000	-0.558337324503321	0.50269117789436
491200000	-0.369553333116425	0.657116148529497
492500000	-0.148788377595901	0.743039435764998
493800000	0.0802067944290601	0.757929486296839
495100000	0.297586600002616	0.707537060736797
496400000	0.4867332315041	0.599894493138012
497700000	0.635734646515204	0.447446529505375
499000000	0.736056245457799	0.262781954504743
500300000	0.782774595184383	0.0589758496993754
501600000	0.773125610029624	-0.150124444763909
502900000	0.706793042473821	-0.350741964123406
504200000	0.586224384281262	-0.528633748708821
505500000	0.417986896601591	-0.668329807342396
506800000	0.211935019676699	-0.756421361671969
508100000	-0.016056852009845	-0.781580836713167
509400000	-0.246967227544386	-0.736227633497893
510700000	-0.456655222340699	-0.620340558362053
512000000	-0.62222643781475	-0.44213094700025
513300000	-0.724265573926694	-0.219217881313901
514600000	-0.750906442475463	0.0244406156826664
515900000	-0.699608323353617	0.262419789391658
517200000	-0.578432841713998	0.469996955043888
518500000	-0.402738551304445	0.627551535316001
519800000	-0.192180309449268	0.722715324876304
521100000	0.03225384202744	0.75101830788855
522400000	0.250956804689071	0.713750073326611
523700000	0.447000368160217	0.61760438660073
525000000	0.606088995876358	0.471875947020467
526300000	0.717559700009926	0.288587476094714
527600000	0.773504462104798	0.0816517783707271
528900000	0.769150359766977	-0.134399964124991
530200000	0.703147422388048	-0.342920387118784
531500000	0.577948052572417	-0.526446593897375
532800000	0.400789356939455	-0.66791271381946
534100000	0.184903582160728	-0.751351125950017
535400000	-0.0512307619496608	-0.76573944549321
536700000	-0.284036863905155	-0.703755282713725
538000000	-0.487780760658304	-0.570382763350071
539300000	-0.640010580462246	-0.377219071587209
540600000	-0.722165033165966	-0.145793465176714
541900000	-0.726475835385508	0.0980447971996579
543200000	-0.655059648276925	0.327466086833407
544500000	-0.518004968001599	0.520328668038668
545800000	-0.333353412645939	0.659284843017844
547100000	-0.120549402741103	0.73500839258195
548400000	0.101290689980948	0.745609169401178
549700000	0.312204889387289	0.692600168122109
551000000	0.497341964579547	0.583378084971479
552300000	0.643065882241479	0.427596037809038
553600000	0.739250643686595	0.237842255509211
554900000	0.778070165328457	0.0274589376634587
556200000	0.755363253376204	-0.187682478352095
557500000	0.669972107995278	-0.390653740557711
558800000	0.525662012443134	-0.562621323255397
560100000	0.33212883318641	-0.686464667447576
561400000	0.104374433005742	-0.746338282595278
562700000	-0.13540825650742	-0.731522865691941
564000000	-0.361822639269611	-0.640091835020047
565300000	-0.548292980825706	-0.479195993488415
566600000	-0.673369705408803	-0.265803170868616
567900000	-0.722154537743707	-0.0250375816704854
569200000	-0.69214631064031	0.215582406323467
570500000	-0.590061485251346	0.429994895053504
571800000	-0.43104899820976	0.598535957822521
573100000	-0.233950643983664	0.708379730873607
574400000	-0.0192502467932908	0.754470816542903
575700000	0.194753849962024	0.73725755593503
577000000	0.390758862077584	0.662486946783786
578300000	0.556722977481656	0.537406842404381
579600000	0.680706508585061	0.373651073957385
580900000	0.755345029161175	0.181656526339433
582200000	0.774862570887796	-0.024723521990331
583500000	0.735316566573731	-0.231847485834427
584800000	0.63681405102795	-0.423239260898803
586100000	0.483897443406383	-0.582307791394609
587400000	0.284690695189196	-0.692129513727818
588700000	0.0555370304686213	-0.737795939349954
590000000	-0.182271922315903	-0.709176815669382
591300000	-0.402556384234949	-0.604381923529879
592600000	-0.578953454806203	-0.432466276864392
593900000	-0.690479462672481	-0.212404059226574
595200000	-0.724859329998424	0.0292163947861127
596500000	-0.681323451362272	0.264956840373669
597800000	-0.569635554973715	0.46966514099078
599100000	-0.406347267841765	0.625926399225611
600400000	-0.211164592995714	0.723271630632148
601700000	-0.00352412798841386	0.760271839429428
603000000	0.200258190041174	0.738541487456971
604300000	0.386602289125295	0.664592491331596
605600000	0.543570093873085	0.546234411298454
606900000	0.663530743523676	0.391756097481003
608200000	0.739164730187972	0.210578419340985
609500000	0.764959197787331	0.0129751208805747
610800000	0.735800962082541	-0.188809493989572
612100000	0.648870057046021	-0.380731452562143
613400000	0.504788156320014	-0.546016768998255
614700000	0.308991675864673	-0.665711368167626
616000000	0.0755425848479883	-0.719990277353675
617300000	-0.172293408650521	-0.693291999670699
618600000	-0.403740408905839	-0.580435378264926
619900000	-0.584795373169946	-0.390685477461207
621200000	-0.687472829041839	-0.14901026029441
622500000	-0.699092870304806	0.108888074339397
623800000	-0.624082422696431	0.347582224420929
625100000	-0.481633902070016	0.540283041870314
626400000	-0.295414255955003	0.671426643855707
627700000	-0.0908601399812932	0.738320361030076
629000000	0.113148566169197	0.744829321774812
630300000	0.301405938354364	0.700227852983092
631600000	0.466100578335841	0.61250675575927
632900000	0.600052432807492	0.492400170654846
634200000	0.699988301897039	0.347789669761043
635500000	0.763600414892069	0.186561321324866
636800000	0.787992690196199	0.0147554766422906
638100000	0.772663020620681	-0.16006656368793
639400000	0.715442887985965	-0.329879302868692
640700000	0.615644571210729	-0.48642664234783
642000000	0.47370209375972	-0.617776710618428
643300000	0.292390207354692	-0.711601691800475
644600000	0.080866812566149	-0.752384746203304
645900000	-0.147060414369243	-0.726070096568576
647200000	-0.365815540707933	-0.623027187807778
648500000	-0.545449421085116	-0.443122533675355
649800000	-0.653148603208951	-0.202301313816868
651100000	-0.666133615503894	0.0659293276352054
652400000	-0.579003290600792	0.320584548996237
653700000	-0.407854163311235	0.521848963267292
655000000	-0.183838051729109	0.643895847819436
656300000	0.0581661428825428	0.680740496030464
657600000	0.287343458847998	0.637209202969854
658900000	0.482405102181404	0.529493612124515
660200000	0.629714886581699	0.375008656764489
661500000	0.722477779262746	0.190596001737674
662800000	0.759254020506424	-0.00713650007516902
664100000	0.740969342039366	-0.204576950503874
665400000	0.669982120657951	-0.389376509009607
666700000	0.55074866914277	-0.549142486903621
668000000	0.38991519246065	-0.671804587265748
669300000	0.197211168689857	-0.746525570498855
670600000	-0.0144772584794586	-0.764109214585823
671900000	-0.228093948238012	-0.717578555415292
673200000	-0.422922840491519	-0.606174009542682
674500000	-0.578667152533516	-0.436545582492048
675800000	-0.674859910313598	-0.222979339736879
677100000	-0.699447583459197	0.012323407528181
678400000	-0.647997409053555	0.243351772855966
679700000	-0.527193704635407	0.444964551705819
681000000	-0.35237198759761	0.595909887648235
682300000	-0.144015998855548	0.684138535370539
683600000	0.0753551035492325	0.705292548843147
684900000	0.286370153067529	0.661540644127905
686200000	0.471070538408677	0.561295073980782
687500000	0.616828095188068	0.415550322674887
688800000	0.714774324519341	0.237675710912453
690100000	0.759175258187781	0.0407891696444243
691400000	0.746928480453949	-0.160985927747325
692700000	0.678406708565536	-0.35273133753527
694000000	0.555616267309703	-0.519976324973143
695300000	0.386233425173084	-0.647361298765302
696600000	0.18135533760943	-0.721228445554003
697900000	-0.0424084485887091	-0.728919587523586
699200000	-0.263062560567064	-0.665623312638078
700500000	-0.457613322920237	-0.532128341263715
701800000	-0.600440194185088	-0.339583165105108
703100000	-0.673284171976913	-0.108453955537946
704400000	-0.665974095983313	0.13326649014271
705700000	-0.581266640070353	0.356419538112857
707000000	-0.4321808501992	0.537253852508874
708300000	-0.239543269983087	0.65859324741257
709600000	-0.0259653095436001	0.713818710522682
710900000	0.186599185845268	0.703820737884479
712200000	0.381052094346174	0.635392674188473
713500000	0.54437161141549	0.519095776843476
714800000	0.667162775945485	0.366775593643289
716100000	0.742881411147705	0.190658298804347
717400000	0.769267514388321	0.00173904722649054
718700000	0.746333191040176	-0.186966344813157
720000000	0.673385420255327	-0.364919218047679
721300000	0.554409400691553	-0.519503503457449
722600000	0.394471274263929	-0.639044814319653
723900000	0.201894337285519	-0.712146570274839
725200000	-0.0104824935156664	-0.72727708800069
726500000	-0.225735548327065	-0.677572808331948
727800000	-0.42154227064132	-0.560620529289579
729100000	-0.57485887144017	-0.382108479389494
730400000	-0.663598118324295	-0.158940092136085
731700000	-0.673986622763781	0.0834660325799823
733000000	-0.603072065862182	0.315188302676545
734300000	-0.461038010361022	0.508389063897215
735600000	-0.268388173080258	0.641460128586414
736900000	-0.0500663271130275	0.704290049278545
738200000	0.169157510502832	0.696615272862934
739500000	0.368629511542958	0.627151268289769
740800000	0.533877458147819	0.507643017536646
742100000	0.655345710384508	0.351646843916273
743400000	0.72905567636896	0.173359749366067
744700000	0.75296586404388	-0.0141319995066663
746000000	0.728022118055215	-0.199725475815269
747300000	0.657254623061523	-0.372644805468731
