!Agilent N9923A: A.05.17
!Date: Sunday, 01 January 2006 12:43:25
!Model: N9923A
!Serial: MY50371189
!CHECKSUM:1520464080
!Correction: S11(ON U)
!S1P File: Measurement: S11:
# Hz S RI R 50
100000000	0.199508904627688	-0.0328901383792268
100350000	0.198909650403452	-0.0370508240692797
100700000	0.197966794737831	-0.0412508958652318
101050000	0.197062695461758	-0.0455464687300412
101400000	0.195951536551556	-0.049938574263526
101750000	0.194809916325186	-0.0540485290069927
102100000	0.193549128161554	-0.0582190733703881
102450000	0.192035124065207	-0.0624132827821023
102800000	0.190552942104048	-0.0666072434147167
103150000	0.189051923737147	-0.0707272571345023
103500000	0.187408998306074	-0.0747818815312825
103850000	0.185750653363648	-0.078842537523886
104200000	0.183924800690703	-0.0829181881465121
104550000	0.18214022652501	-0.0868368116671629
104900000	0.180076130762976	-0.090651076642195
105250000	0.177865590245941	-0.0946034609215609
105600000	0.175640640697835	-0.0983989196538538
105950000	0.173477156159414	-0.102231033884797
106300000	0.171045733955819	-0.105945690706344
106650000	0.168547447747255	-0.109518037756599
107000000	0.166086109203995	-0.113095585830742
107350000	0.163336522311672	-0.116589050481415
107700000	0.16070425221809	-0.120147149697745
108050000	0.157982497635986	-0.123470987979231
108400000	0.15517587687014	-0.12688207948964
108750000	0.152171885931739	-0.130080810319298
109100000	0.149302516345688	-0.133362864530365
109450000	0.146154380281646	-0.136551561460373
109800000	0.142978363582003	-0.139569557566136
110150000	0.139928762794257	-0.142644418293476
110500000	0.136659703971604	-0.145380926634748
110850000	0.133199240889279	-0.148463056771449
111200000	0.129910654138952	-0.150978317784976
111550000	0.126432396188504	-0.153770555496305
111900000	0.12311845699848	-0.156296134877802
112250000	0.119367394371861	-0.159031245901891
112600000	0.115784267844835	-0.161388179923479
112950000	0.112084069704846	-0.163841247161882
113300000	0.108244210938969	-0.16604209901356
113650000	0.104481685008548	-0.168272020988405
114000000	0.100748374651104	-0.17037100758255
114350000	0.0969041133119938	-0.17243705559441
114700000	0.0928753894391343	-0.17442339501544
115050000	0.0888487092295514	-0.175996601950158
115400000	0.0849965245243489	-0.177985629500655
115750000	0.0809219541668861	-0.179643089112342
116100000	0.0767210628156387	-0.181214511915892
116450000	0.0725199840221028	-0.18267466535847
116800000	0.0682833690931477	-0.184041513519998
117150000	0.0640936338641577	-0.1852947890143
117500000	0.0599825400851761	-0.186502409910004
117850000	0.0557568011196638	-0.187558811330087
118200000	0.0514689879675806	-0.188581237572039
118550000	0.0472198367717862	-0.189470154993568
118900000	0.0427883415274763	-0.190149806946309
119250000	0.0385858119228721	-0.19100173495925
119600000	0.0341322466847576	-0.191489682669768
119950000	0.0299747414078825	-0.191958848188404
120300000	0.0255660508456016	-0.192313297699147
120650000	0.0210235550141249	-0.192704474819071
121000000	0.0168022375751505	-0.192942498723415
121350000	0.0123883241041416	-0.193107298973418
121700000	0.00801643582470083	-0.192981492096899
122050000	0.00355186538072561	-0.192885596359239
122400000	-0.000873591302527133	-0.192596829139675
122750000	-0.00514129660821803	-0.192433309847188
123100000	-0.00941279703751015	-0.191881621205883
123450000	-0.0139010904076666	-0.191496453464045
123800000	-0.0182502801305655	-0.190758571584789
124150000	-0.0226752353136696	-0.190394673068399
124500000	-0.0267291052030189	-0.189300445412659
124850000	-0.0312846846624066	-0.188439829434888
125200000	-0.0355461957608666	-0.187523554619653
125550000	-0.0397871883311086	-0.186376409588038
125900000	-0.0440518370093358	-0.185007090132571
126250000	-0.0482373812775646	-0.183885158208723
126600000	-0.0524354841965173	-0.182357165794862
126950000	-0.0565012298542278	-0.180802152141965
127300000	-0.0606856944864871	-0.179432872263449
127650000	-0.0646980092775952	-0.177691412098651
128000000	-0.0687089421127813	-0.175945525717424
128350000	-0.072746060543906	-0.174003613547481
128700000	-0.0767272185688591	-0.172203836253751
129050000	-0.0806425131261943	-0.169936694534593
129400000	-0.0846430420022485	-0.168063329188175
129750000	-0.0881898269128387	-0.165766622502396
130100000	-0.0919642696720112	-0.163455158281017
130450000	-0.0957079887218528	-0.161066031560004
130800000	-0.0992462793122832	-0.15834929671632
131150000	-0.103059496113484	-0.156113435905998
131500000	-0.106421435760023	-0.153438409023145
131850000	-0.110005214043502	-0.150592923832186
132200000	-0.113383627418867	-0.147867684693834
132550000	-0.116580621186066	-0.144996103641868
132900000	-0.119885071792527	-0.141895421531573
133250000	-0.123116130907456	-0.138875481054149
133600000	-0.12628402329497	-0.135773579995011
133950000	-0.129568975249862	-0.13278814294453
134300000	-0.132399744600891	-0.129374102784437
134650000	-0.135293498468756	-0.12602965239356
135000000	-0.138326023381922	-0.122665786072311
135350000	-0.140776545302875	-0.119285072358253
135700000	-0.143532459882573	-0.115810621022436
136050000	-0.146472946517181	-0.11223130225738
136400000	-0.148561376116039	-0.108686683615069
136750000	-0.15118969878776	-0.104910109558945
137100000	-0.153517421474623	-0.100948394886107
137450000	-0.155875910899691	-0.0972623115478366
137800000	-0.158154176052835	-0.0933319769975571
138150000	-0.160373215472951	-0.0895777966234828
138500000	-0.161958731962593	-0.0853900721097936
138850000	-0.163960186044783	-0.081635582940359
139200000	-0.165858534170976	-0.0774629880712854
139550000	-0.167531062973773	-0.0734991580011788
139900000	-0.169284432751111	-0.0692430275823519
140250000	-0.170787285413685	-0.065237663464497
140600000	-0.172257295053941	-0.0610517917909066
140950000	-0.173495946367754	-0.0569300131589613
141300000	-0.174843296636576	-0.0525520697729095
141650000	-0.175948384408524	-0.0482690037467552
142000000	-0.176794785517988	-0.0440596149340929
142350000	-0.177880187332149	-0.0397302152598259
142700000	-0.178670604813971	-0.0354498618627502
143050000	-0.17943221967666	-0.0311266956125584
143400000	-0.180237907223329	-0.0265509026598022
143750000	-0.18082781803233	-0.0222271144725253
144100000	-0.181316052723706	-0.0179534608075611
144450000	-0.181585409509601	-0.013574497666862
144800000	-0.181801514281758	-0.00909261542075555
145150000	-0.181915142703739	-0.0046647799956022
145500000	-0.182057898482426	-0.000300591177680733
145850000	-0.182125853519042	0.00411835197639495
146200000	-0.181866265608379	0.00859554527785439
146550000	-0.181624723751559	0.0129056392823833
146900000	-0.181194351453347	0.0173395264453579
147250000	-0.180716453762916	0.0217908264702456
147600000	-0.180190704947641	0.0261115055333365
147950000	-0.179694915269987	0.0305594938142138
148300000	-0.178760804317679	0.0347860320843904
148650000	-0.178050524001453	0.0390523960655255
149000000	-0.177133865638657	0.0433771414210161
149350000	-0.176098807949128	0.0476018596042017
149700000	-0.174966389791459	0.051961595158598
150050000	-0.173725652221039	0.0561751158914175
150400000	-0.172429368979948	0.0604056755449319
150750000	-0.170975432735942	0.0644256226785622
151100000	-0.169501625860548	0.0686149057617133
151450000	-0.16795554687685	0.072653250122467
151800000	-0.166257355569731	0.0766975182872308
152150000	-0.164487776802651	0.0807694150454453
152500000	-0.162576598995242	0.0848667226719233
152850000	-0.160598112156375	0.0886755562061644
153200000	-0.158688409279807	0.092410050094649
153550000	-0.156454115077139	0.0963316754749463
153900000	-0.154350285111262	0.0999723655468659
154250000	-0.151850214967331	0.103804948644798
154600000	-0.149752898843383	0.107497305234376
154950000	-0.147107827788843	0.111065557035161
155300000	-0.144413795304004	0.114609624633694
155650000	-0.141950905900466	0.11816664114623
156000000	-0.139260731647142	0.121578539362056
156350000	-0.136337187744976	0.124835594606706
156700000	-0.133595312451136	0.128164396848584
157050000	-0.130700823477733	0.131460622072303
157400000	-0.127715158602563	0.134820476865892
157750000	-0.124774458993956	0.13761324640562
158100000	-0.12167739974569	0.140876692965586
158450000	-0.11839983543202	0.143820717323913
158800000	-0.115060794212479	0.146562570121788
159150000	-0.111733557627742	0.149544855645142
159500000	-0.108539252059034	0.152145881890165
159850000	-0.104956637139056	0.154794460100739
160200000	-0.101399302781079	0.157237298659827
160550000	-0.0978868145014408	0.15981908820144
160900000	-0.0942813424228838	0.162165156013136
161250000	-0.0906590581381633	0.164672988022673
161600000	-0.0870891953031102	0.166880670916847
161950000	-0.0832554476821327	0.169017168807791
162300000	-0.0795185913624017	0.171091728518602
162650000	-0.0756590582124371	0.172961041770718
163000000	-0.071656281789337	0.174765283462722
163350000	-0.067858498977237	0.176672004010519
163700000	-0.0638642871443774	0.178567474476922
164050000	-0.0597764783313521	0.180068733305844
164400000	-0.0557039741134842	0.181585920180286
164750000	-0.0516949526568716	0.182971573059446
165100000	-0.0475520688013123	0.184447174931438
165450000	-0.0435082923277152	0.18555010468438
165800000	-0.0393145175396979	0.186858546052667
166150000	-0.0349698674883548	0.187824938811993
166500000	-0.030738508232096	0.188966150414235
166850000	-0.0266688232930475	0.189691951019805
167200000	-0.0223275772003067	0.190582212385409
167550000	-0.0181162452397057	0.191070886553743
167900000	-0.013831339569832	0.19169345920738
168250000	-0.00955092603441094	0.192230684778947
168600000	-0.00514211720361707	0.192720182626748
168950000	-0.00098366554843261	0.19282899592844
169300000	0.00335323716754872	0.193095663484448
169650000	0.00771798296121992	0.193078598384831
170000000	0.0119762534879869	0.193083786349554
170350000	0.01626119345674	0.192970386696337
170700000	0.0205212063307717	0.192755856958897
171050000	0.0246524922935675	0.192518602616415
171400000	0.0291255481139069	0.192220681425532
171750000	0.0334092669482416	0.191543552739328
172100000	0.0375000895219885	0.19127796420704
172450000	0.0419792451070601	0.190343236539387
172800000	0.0459067254120301	0.189435229979817
173150000	0.0502927945565274	0.188522084484326
173500000	0.0546078652892723	0.187535039808002
173850000	0.0586879829354231	0.186505337650091
174200000	0.0627307448661097	0.185237378377952
174550000	0.0669328848475459	0.184064542546649
174900000	0.0709983905552313	0.182773581244155
175250000	0.0749021122137345	0.181545601577106
175600000	0.0788806791081998	0.179673965573043
175950000	0.0828827911775329	0.178187200909575
176300000	0.0869526153906846	0.176398859457507
176650000	0.091004358025492	0.174732274565823
177000000	0.0947910249266318	0.172695829532359
177350000	0.0984046783788741	0.170690881216736
177700000	0.102251756469885	0.168608011033989
178050000	0.106036991020937	0.166570746576825
178400000	0.109633228483309	0.164104635841922
178750000	0.113272051469736	0.161924615552706
179100000	0.116712322530461	0.15947111296425
179450000	0.120323617628626	0.157108568432975
179800000	0.123737000634937	0.154365351382461
180150000	0.12710232730723	0.151874072497367
180500000	0.130458434903048	0.149070089597218
180850000	0.133618791670251	0.146296380094102
181200000	0.136905383154008	0.143352801909911
181550000	0.139881826579631	0.140396898011502
181900000	0.142924957505175	0.137504806160387
182250000	0.145937219554057	0.134379580372508
182600000	0.149085243852719	0.131303414447748
182950000	0.151860791028382	0.127998791036322
183300000	0.154703035529958	0.124669109281697
183650000	0.157316264393929	0.121151797828292
184000000	0.159889783603592	0.117839242069712
184350000	0.162638116027379	0.11453764885446
184700000	0.164990246928746	0.110909097208678
185050000	0.167250843453191	0.107276124226437
185400000	0.169619187213344	0.103773849836493
185750000	0.171982890573395	0.10006553109891
186100000	0.173967374715124	0.0962899606427664
186450000	0.176113933520849	0.092376005498424
186800000	0.17798213165053	0.0886857901673354
187150000	0.179646284660655	0.0845282222636354
187500000	0.181764319477776	0.0807255486938777
187850000	0.183307341713308	0.0767450144408067
188200000	0.185075891791065	0.0729256100569197
188550000	0.186451361521721	0.0689829054947744
188900000	0.18793753486249	0.0646041582560523
189250000	0.189361380675589	0.0606896137274806
189600000	0.190551200615182	0.0563991614220607
189950000	0.191501700915273	0.0521996468797802
190300000	0.192829051339701	0.0481582784009021
190650000	0.193614970021394	0.0442170199990384
191000000	0.194499149486621	0.0396004731254837
191350000	0.195351206667677	0.0353143661781204
191700000	0.195952064905912	0.0312764297355901
192050000	0.196544525008995	0.0268097608436452
192400000	0.196807996672872	0.0227108836485431
192750000	0.197281473652307	0.0182158434502621
193100000	0.197589339773949	0.0138820590600499
193450000	0.197683173090109	0.00966271726709313
193800000	0.197823844462071	0.00535236777875793
194150000	0.197863393433889	0.000956589400113495
194500000	0.197650240665502	-0.00331744388750379
194850000	0.197535434552945	-0.00764607262166168
195200000	0.197178958496165	-0.0120724357516232
195550000	0.196745653531158	-0.0162475873274822
195900000	0.196221702466359	-0.0206567103610026
196250000	0.195582338223115	-0.0248531980719331
196600000	0.194880212237835	-0.0292237748181175
196950000	0.194192031905896	-0.0334156643784935
197300000	0.193203119141886	-0.0375939532854002
197650000	0.192378159457912	-0.0419531779556577
198000000	0.191057829876739	-0.0461945044774121
198350000	0.189922757628912	-0.0503792506408999
198700000	0.188588137597835	-0.0543620201450435
199050000	0.187016306902724	-0.0584969270628313
199400000	0.185872918072732	-0.0625817475118754
199750000	0.184350963889034	-0.066695950722432
200100000	0.18256515647287	-0.0708832907660945
200450000	0.180862268003018	-0.074812818223616
200800000	0.178998126001017	-0.0786337776192206
201150000	0.177095575693814	-0.0827085960756336
201500000	0.174974537622957	-0.0864000447458206
201850000	0.17295425406075	-0.0903436260096666
202200000	0.170736682051541	-0.0940282371090507
202550000	0.168390451996098	-0.0976247297322762
202900000	0.165974247313026	-0.10121487946614
203250000	0.163618121043452	-0.104849021219865
203600000	0.161000504129385	-0.10856917542633
203950000	0.158634948310165	-0.111935035700754
204300000	0.15588484347491	-0.115564564731106
204650000	0.153101336223363	-0.118734494506324
205000000	0.150168047409446	-0.122238014149237
205350000	0.147268662477609	-0.12531550703607
205700000	0.144361388008217	-0.128652485743377
206050000	0.141290114001808	-0.131753537071502
206400000	0.138340547587722	-0.134796907734613
206750000	0.134995764265635	-0.137817450274823
207100000	0.131697383390873	-0.140631724521006
207450000	0.128440745691493	-0.143558418476385
207800000	0.124937875955482	-0.146201669894784
208150000	0.121555608737653	-0.148888778309183
208500000	0.118031446591523	-0.151492977162866
208850000	0.114370091290567	-0.154004856196486
209200000	0.110657167453759	-0.156412754829281
209550000	0.107183661481772	-0.158864588501302
209900000	0.103191647193426	-0.160984814353424
210250000	0.0994530418781585	-0.163184162717133
210600000	0.095666656848884	-0.165287313778105
210950000	0.0918054620991987	-0.167317938915662
211300000	0.0877177880800774	-0.169315886815909
211650000	0.0837786583372286	-0.170971073171984
212000000	0.0798919023198182	-0.172899049263523
212350000	0.0756845033923002	-0.174239697395993
212700000	0.0716779529801832	-0.176037969078936
213050000	0.0675801623438215	-0.177327593563629
213400000	0.0633089545075641	-0.178838913522984
213750000	0.0592540072935562	-0.180141911381355
214100000	0.0549527949800061	-0.181094026644137
214450000	0.0507254106121164	-0.182301090619589
214800000	0.0465156177145966	-0.183227498501007
215150000	0.0422640595210171	-0.184049787829773
215500000	0.0379516266601943	-0.185108425371635
215850000	0.0336020555447765	-0.185800055831989
216200000	0.02928233201064	-0.186257930075952
216550000	0.0251060467881954	-0.186719060435701
216900000	0.0206541124910429	-0.187270667165353
217250000	0.0162426792044407	-0.187402076387114
217600000	0.0119758472826381	-0.187597338880728
217950000	0.00742122087479863	-0.18785730221319
218300000	0.00303766198928613	-0.187654793344607
218650000	-0.00129775282817354	-0.187645245820579
219000000	-0.00550804870702506	-0.187400746727834
219350000	-0.0100214498104737	-0.187085928947788
219700000	-0.0143743903033901	-0.186554585091428
220050000	-0.0187506687003849	-0.186207907859925
220400000	-0.0228607768415902	-0.185641923733312
220750000	-0.0271338087665823	-0.184933973499486
221100000	-0.0315694654403561	-0.184106048735625
221450000	-0.0357429249179315	-0.183126308819518
221800000	-0.039998251307799	-0.182029139258481
222150000	-0.0440264631689059	-0.181007149714748
222500000	-0.048357314258443	-0.179900452700247
222850000	-0.0526143407666571	-0.178577451057681
223200000	-0.0569904961690587	-0.177201186138142
223550000	-0.0608850589571416	-0.175771439999657
223900000	-0.0650324972260046	-0.174287925595333
224250000	-0.0689442447138341	-0.172476198035928
224600000	-0.073150301875776	-0.170620922503822
224950000	-0.0771309310013447	-0.168851501628523
225300000	-0.0809256771030446	-0.166884159817664
225650000	-0.0848322619667875	-0.16482810035904
226000000	-0.0886485715356996	-0.16251082771076
226350000	-0.0925062285289299	-0.16041684718965
226700000	-0.0962310082936871	-0.158184372869788
227050000	-0.0999232287916456	-0.155752493193188
227400000	-0.103491845513946	-0.153266023686329
227750000	-0.10711931021484	-0.150762790561399
228100000	-0.110672567230867	-0.148135731279905
228450000	-0.113973810617619	-0.145327286354526
228800000	-0.117551253392473	-0.142757869687948
229150000	-0.120617904268425	-0.139694665846781
229500000	-0.12394090520971	-0.136622135045295
229850000	-0.127282278508363	-0.133647554828313
230200000	-0.130220192864492	-0.130821453313575
230550000	-0.133433511940151	-0.12747836847384
230900000	-0.13626962581451	-0.124337221489917
231250000	-0.13906513004579	-0.120976055837501
231600000	-0.142002456550406	-0.117547736480228
231950000	-0.14472786651637	-0.114099060520742
232300000	-0.147364084461621	-0.110637846317008
232650000	-0.149849815572931	-0.107204464856912
233000000	-0.152334794814939	-0.103693318118723
233350000	-0.154658898098515	-0.0998511306751562
233700000	-0.156982398531939	-0.0963070064201145
234050000	-0.159331609319933	-0.0924311867369886
234400000	-0.161460624886954	-0.0885280550538116
234750000	-0.163623113086952	-0.084777626092264
235100000	-0.165383240404876	-0.080839337755091
235450000	-0.167437789129267	-0.0768733607757839
235800000	-0.169171099908304	-0.0729985593407295
236150000	-0.170786263474138	-0.0688924150695833
236500000	-0.172434161364442	-0.0647215218704577
236850000	-0.174080641058737	-0.0607549992892139
237200000	-0.175332087418181	-0.0565329173851272
237550000	-0.176660226182758	-0.0524844630263921
237900000	-0.177963652474454	-0.04820266323848
238250000	-0.178895545873133	-0.0439045103624658
238600000	-0.180039636742818	-0.0396419961601289
238950000	-0.18103706702217	-0.0353331323568759
239300000	-0.181616420217763	-0.0311107311509016
239650000	-0.182568439937355	-0.0267912105752064
240000000	-0.183194497208273	-0.0225409408961588
240350000	-0.183656720403077	-0.0180033792974342
240700000	-0.184059048672293	-0.0138146107303919
241050000	-0.184309380318966	-0.00945106230567709
241400000	-0.184706959530582	-0.00484835062478934
241750000	-0.184752273851757	-0.000540359015386877
242100000	-0.184612123156657	0.00369110366833541
242450000	-0.184838440811952	0.00814222514759828
242800000	-0.184573669410865	0.0124869285666208
243150000	-0.184411722188968	0.0168535130773935
243500000	-0.183892298924156	0.0211951675570198
243850000	-0.18349628050743	0.0257084724296416
244200000	-0.183051880536438	0.0300939943719422
244550000	-0.182162353994533	0.034365067651131
244900000	-0.181408961021778	0.0387357843544875
