!Agilent N9923A: A.05.17
!Date: Sunday, 01 January 2006 12:44:59
!Model: N9923A
!Serial: MY50371189
!CHECKSUM:1557265932
!Correction: S11(ON U)
!S1P File: Measurement: S11:
# Hz S RI R 50
100000000	0.0319039439434701	0.311235251167918
100350000	0.0566439696919306	0.308588456612744
100700000	0.081141916995327	0.30405464851868
101050000	0.105025557675609	0.297511528193459
101400000	0.128486675593002	0.288876620987249
101750000	0.150947174484437	0.278723881920465
102100000	0.172527095444457	0.266373062428583
102450000	0.192908195194758	0.25269614207106
102800000	0.212207438375546	0.237425551234933
103150000	0.23032261577156	0.220347927984259
103500000	0.246751518401638	0.202305328736071
103850000	0.261827405461336	0.1827554652787
104200000	0.274933523733948	0.161982710812416
104550000	0.286765137995982	0.140551753045548
104900000	0.296548412344891	0.117967116050433
105250000	0.304484909313239	0.0950429886104159
105600000	0.310459821636313	0.0713082342564659
105950000	0.314667255347617	0.0472651283897466
106300000	0.316681727987504	0.0226840339113314
106650000	0.316989090963055	-0.00131957810668966
107000000	0.315195437087243	-0.0256702887386238
107350000	0.311485271202141	-0.0497686371103454
107700000	0.305752755549838	-0.0734570463068828
108050000	0.298166722360203	-0.0965916092522549
108400000	0.288756624803981	-0.118900715453483
108750000	0.277580879053951	-0.14047600060303
109100000	0.264591788359491	-0.161161403770329
109450000	0.249974823436562	-0.180614777442355
109800000	0.233788406726712	-0.198749266703663
110150000	0.216274217010338	-0.215613514472621
110500000	0.197518927072256	-0.23088200674891
110850000	0.177402064598963	-0.244606650834552
111200000	0.15634366219872	-0.256370117282344
111550000	0.134241226934095	-0.266662526008499
111900000	0.111667939435555	-0.275068308776622
112250000	0.088171302730352	-0.281571628144952
112600000	0.0643872566082875	-0.285838703328252
112950000	0.0402612598639797	-0.288653983500243
113300000	0.0160672266347713	-0.28908700974281
113650000	-0.00826160384537685	-0.287522851897248
114000000	-0.0319853130089407	-0.284152253234892
114350000	-0.0555455012563189	-0.278692574827013
114700000	-0.0785653844398785	-0.271219044289449
115050000	-0.100870954723867	-0.261969469525226
115400000	-0.122112547935146	-0.250875291399746
115750000	-0.142834889533195	-0.238074974941629
116100000	-0.162022749789283	-0.223615215696111
116450000	-0.180170732241269	-0.2077760364914
116800000	-0.196779093522306	-0.190246255754663
117150000	-0.211775091060014	-0.171503949369649
117500000	-0.225203297338781	-0.151930191409644
117850000	-0.236801282840424	-0.130884187607419
118200000	-0.246948121583076	-0.109095248608922
118550000	-0.254939349347462	-0.086660268636148
118900000	-0.26087603673413	-0.0636419886967821
119250000	-0.265182045922559	-0.0403966656092601
119600000	-0.267521052435565	-0.0167125213026381
119950000	-0.267640621459639	0.00696826736184854
120300000	-0.266127138336459	0.030646655440466
120650000	-0.262689749325412	0.0537093410489059
121000000	-0.257029495602255	0.076503838420003
121350000	-0.24976164722889	0.098865757997594
121700000	-0.240534801871829	0.120420974049748
122050000	-0.229800866147213	0.141173710637076
122400000	-0.217267295971129	0.16089218172881
122750000	-0.203152752650366	0.179219596915084
123100000	-0.18751891878678	0.196663507082611
123450000	-0.170902972894231	0.212344392602352
123800000	-0.152798605266873	0.226840438262441
124150000	-0.133788972879604	0.239321253560858
124500000	-0.113684932203818	0.250606416829001
124850000	-0.0927788961766676	0.260095274054578
125200000	-0.071341601990122	0.267753122832642
125550000	-0.0493876005896482	0.273547120881995
125900000	-0.0272154503146676	0.277581768158737
126250000	-0.00455872896194819	0.279714163613082
126600000	0.0178160699659078	0.280026864287983
126950000	0.0404806587507293	0.278772741704556
127300000	0.0624983459067963	0.275140305701226
127650000	0.0842505259567526	0.270161618119182
128000000	0.105462032286888	0.263113875313317
128350000	0.126077905805716	0.254451853610166
128700000	0.145795930170392	0.244261927677655
129050000	0.164355222942604	0.232530043398393
129400000	0.182122992350702	0.219188719522524
129750000	0.198709634731384	0.204634469015833
130100000	0.214082400447612	0.18867965404485
130450000	0.227799323590029	0.171615371650536
130800000	0.240374458292453	0.153640285474932
131150000	0.251069970093882	0.134421566687823
131500000	0.260265960361817	0.114632477656301
131850000	0.267765487744524	0.0940777785919478
132200000	0.273833233258444	0.0730600975422269
132550000	0.277789471538132	0.0515856493883047
132900000	0.280137717495051	0.0298871537629256
133250000	0.280797269817134	0.00808019976018875
133600000	0.279315343645185	-0.0136222650594086
133950000	0.276296428952819	-0.0353572184614206
134300000	0.271252407110732	-0.0565124086555057
134650000	0.264720324422724	-0.0771410365740126
135000000	0.256332435090466	-0.0973035533080941
135350000	0.246521608967994	-0.116666655644271
135700000	0.234863753888979	-0.135242294652978
136050000	0.221660586550911	-0.152721146090929
136400000	0.207416034973838	-0.169042913959624
136750000	0.191589926925588	-0.184142242432668
137100000	0.174723655289191	-0.197634709784163
137450000	0.156450856003504	-0.209902592577004
137800000	0.137509949014752	-0.22050955628189
138150000	0.117604215986583	-0.229542554738048
138500000	0.0971170123898471	-0.236745223161013
138850000	0.0760158722165142	-0.242536202272041
139200000	0.0544566472470397	-0.246319202726246
139550000	0.0329052027780118	-0.248213803919122
139900000	0.0109130458904889	-0.248225756717506
140250000	-0.01076123030892	-0.246786519246277
140600000	-0.0324157599802322	-0.243283665845332
140950000	-0.0537270424116688	-0.237825644596337
141300000	-0.074270989911846	-0.230615907801436
141650000	-0.0944195361153284	-0.22200092983919
142000000	-0.113314456895109	-0.211308216201222
142350000	-0.131636826604181	-0.199439262916369
142700000	-0.148817126252932	-0.185888602942277
143050000	-0.164861711138668	-0.171062774052808
143400000	-0.179504296919075	-0.154638109953189
143750000	-0.192791771750349	-0.137494567364019
144100000	-0.204492123640351	-0.119015276898817
144450000	-0.214602700726756	-0.0997383461603547
144800000	-0.22308550456314	-0.0797952257818445
145150000	-0.229903641653814	-0.0589187642948257
145500000	-0.23482076720411	-0.0379383087842828
145850000	-0.238126639836316	-0.0164650907871869
146200000	-0.239606975112246	0.00496156594854479
146550000	-0.239105994002223	0.0267490665775849
146900000	-0.236887105434616	0.0482539824971514
147250000	-0.233152120266782	0.0695035721391019
147600000	-0.227313442200414	0.0902292044040406
147950000	-0.220217776472259	0.110604958368951
148300000	-0.210910752842658	0.130078287867571
148650000	-0.200537538600687	0.148625397771751
149000000	-0.188586588555013	0.166305504031189
149350000	-0.17509813997314	0.182952710583664
149700000	-0.160483424576862	0.198539426428048
150050000	-0.144595556699678	0.212576897968691
150400000	-0.12777387095292	0.225437160589942
150750000	-0.109533915743468	0.236684781243758
151100000	-0.0911414741693748	0.246648070587823
151450000	-0.0715860901852202	0.254926140063583
151800000	-0.0516263415121824	0.26165840439617
152150000	-0.0312183086442796	0.266581932498798
152500000	-0.0102817930431091	0.270024753400882
152850000	0.0106276142554817	0.271712235045319
153200000	0.0314860197553869	0.2715328531758
153550000	0.0525411046954421	0.269826675485584
153900000	0.0731623279673112	0.266313468733141
154250000	0.0935942958053609	0.261288936938527
154600000	0.113189711180219	0.254632130364429
154950000	0.132428631560399	0.24626238527632
155300000	0.150847419233866	0.236415365051917
155650000	0.168440962248553	0.225151312992174
156000000	0.185006881579723	0.212508619233375
156350000	0.20041646422403	0.198473784149758
156700000	0.214789688115079	0.183178317853597
157050000	0.227717034110555	0.166936931220801
157400000	0.239274047988832	0.149901728902713
157750000	0.249509408298506	0.131711944701462
158100000	0.258135483927094	0.11279236629789
158450000	0.265327634869336	0.0934343607938161
158800000	0.270834311021346	0.0733190331168458
159150000	0.274797970013691	0.0530545790486109
159500000	0.276884309429665	0.0322611834330597
159850000	0.277525213592894	0.0113969636915697
160200000	0.276375037140264	-0.00932817520570286
160550000	0.273579653605816	-0.0298500503887287
160900000	0.2691878145178	-0.0504617791392619
161250000	0.262899514641691	-0.0702161121570421
161600000	0.255208040501375	-0.0894990463591592
161950000	0.246026636934141	-0.108413662295148
162300000	0.234981419540829	-0.126443030973553
162650000	0.222961415397552	-0.143375227053782
163000000	0.209121119074277	-0.159439558620804
163350000	0.194070924973683	-0.174206918310663
163700000	0.178060199011988	-0.187701835186266
164050000	0.160917577533641	-0.199934234870428
164400000	0.142497343775934	-0.210612163674165
164750000	0.123453152294248	-0.21981181090751
165100000	0.103757847174671	-0.227153620043236
165450000	0.0833720520328338	-0.23324250047099
165800000	0.0624159771086126	-0.237445819465322
166150000	0.0415470881238363	-0.240006786380429
166500000	0.0205211526238089	-0.24047490478037
166850000	-0.000963500614467434	-0.239463529749205
167200000	-0.0219140959566179	-0.23664370872826
167550000	-0.0428396387369931	-0.232094057189812
167900000	-0.0630979312631754	-0.225899003329235
168250000	-0.082783171607477	-0.217861244451336
168600000	-0.101775112667983	-0.208382525861043
168950000	-0.120025683630661	-0.19729903568952
169300000	-0.137193451850954	-0.18459823865788
169650000	-0.15335328789193	-0.170747669943869
170000000	-0.167979509090882	-0.155383039259204
170350000	-0.181499960449848	-0.1389335775973
170700000	-0.193718271804487	-0.121415305187241
171050000	-0.204421582627444	-0.103069581758407
171400000	-0.213440988894925	-0.0837734371849458
171750000	-0.220719876029104	-0.0640301258485965
172100000	-0.226602031111129	-0.043599486758347
172450000	-0.230438492794696	-0.0227191833883392
172800000	-0.232820172680723	-0.00191517643901201
173150000	-0.233266974367849	0.0190774716669353
173500000	-0.232089797754027	0.0402017988286116
173850000	-0.229232865104439	0.0610581403041265
174200000	-0.224527710756403	0.0813858505260658
174550000	-0.218279102635276	0.101383407811426
174900000	-0.210533163146739	0.120958339279894
175250000	-0.201230738171332	0.139544103461623
175600000	-0.190240558090718	0.157226142806545
175950000	-0.178124571247163	0.174051917239707
176300000	-0.164418983673482	0.189657693203934
176650000	-0.149751726550166	0.204402376278159
177000000	-0.133989452618882	0.217530233003498
177350000	-0.117317471397998	0.229491851384841
177700000	-0.099520775611268	0.240072812292621
178050000	-0.0810318928653944	0.249313809621716
178400000	-0.0619478051789046	0.256562430029299
178750000	-0.042235677955557	0.262584225647787
179100000	-0.0223370531649769	0.267143448782994
179450000	-0.00202592831375593	0.269948138017758
179800000	0.0183885130551643	0.270926022330156
180150000	0.0386863437961328	0.270386512780942
180500000	0.0588539900058045	0.268214892151231
180850000	0.078710633503252	0.264374921305199
181200000	0.0984179053733211	0.258925893076184
181550000	0.117354548100663	0.252006647704378
181900000	0.135714675409211	0.243790822202465
182250000	0.153482998129075	0.233983101375348
182600000	0.170439673420774	0.222941172636369
182950000	0.186099216364525	0.210385337223286
183300000	0.200987023796163	0.196765512044093
183650000	0.214645400420174	0.181736345278828
184000000	0.227070007997934	0.166118521532259
184350000	0.23823371838433	0.14945269197602
184700000	0.247974498032155	0.131786937123706
185050000	0.256177315057157	0.113525930177601
185400000	0.263127870804588	0.0948641782130995
185750000	0.268514363931304	0.0753682245452311
186100000	0.272175348295887	0.0556272959553764
186450000	0.27452003059376	0.0357078280146043
186800000	0.274799738727722	0.0156682149412716
187150000	0.273672240654202	-0.00454292634408779
187500000	0.271385265993444	-0.0243623925293529
187850000	0.267062210878685	-0.0439960988420326
188200000	0.261393328622076	-0.0631214006783107
188550000	0.253941704617323	-0.0818045080237096
188900000	0.245223088117272	-0.0998476729040747
189250000	0.235138249606083	-0.117142516126436
189600000	0.223513610762365	-0.133788827137148
189950000	0.210788127908272	-0.149206791779562
190300000	0.19668456586204	-0.16356590620295
190650000	0.181486229873863	-0.176550231883239
191000000	0.165312797209962	-0.188695630577403
191350000	0.148120434589119	-0.199271665966354
191700000	0.130241095378278	-0.208387550310073
192050000	0.111641920915149	-0.216133727755533
192400000	0.0924885114891212	-0.222070918822944
192750000	0.0730846271832869	-0.226710257144647
193100000	0.05307964840964	-0.229752063587255
193450000	0.0330336969316044	-0.230927743486709
193800000	0.0130209217804449	-0.230751013566023
194150000	-0.00702673512995599	-0.228922649271856
194500000	-0.0267645891596822	-0.225378040127311
194850000	-0.0461429567635127	-0.220196207487071
195200000	-0.0650503915919613	-0.213514633137366
195550000	-0.0832709573412169	-0.205261563886259
195900000	-0.100917945166935	-0.195700390391544
196250000	-0.117504412334868	-0.184517246221412
196600000	-0.133162779251837	-0.172308898931594
196950000	-0.147691681141611	-0.158623996900389
197300000	-0.161150943008912	-0.144058143999024
197650000	-0.173220387189731	-0.128280610025647
198000000	-0.184030082295156	-0.111646257595745
198350000	-0.19339929239874	-0.0941128162483002
198700000	-0.20119909415514	-0.0760379511468658
199050000	-0.207624584819845	-0.0573809536761563
199400000	-0.212360101028751	-0.0384876679289234
199750000	-0.215724578128549	-0.0191734935937837
200100000	-0.217288288611078	0.00028744734064812
200450000	-0.217166213430351	0.0198635576805604
200800000	-0.215591152571985	0.0390947395868853
201150000	-0.212626449759068	0.0583076034047688
201500000	-0.208035065946924	0.0770471116297933
201850000	-0.201717694024432	0.0952195150963221
202200000	-0.194312265140489	0.112952567511874
202550000	-0.185399017704195	0.129930847011722
202900000	-0.175283450719735	0.14614763986439
203250000	-0.163755804071144	0.161022409136953
203600000	-0.151028624285913	0.175028592595899
203950000	-0.137391578262193	0.188103991904559
204300000	-0.122884617180047	0.199742075923551
204650000	-0.107360039742001	0.210589789880642
205000000	-0.0912007002849232	0.219773938846617
205350000	-0.0743095389795847	0.227714289902548
205700000	-0.0567606551092145	0.234173006331425
206050000	-0.0390184990159125	0.239269172867126
206400000	-0.0206831073090554	0.242722091366291
206750000	-0.00271746920979078	0.244852643976495
207100000	0.0158006494128724	0.24549698139138
207450000	0.0342230392504	0.244603677813578
207800000	0.0522518486595915	0.242472133745752
208150000	0.0702156560122292	0.238611500792234
208500000	0.0874924505873857	0.233607388648442
208850000	0.104350710685965	0.226894260061333
209200000	0.120607108059007	0.219158957945667
209550000	0.136329112977847	0.209774657451707
209900000	0.150753911853385	0.199507568755627
210250000	0.164737209106908	0.188061068644813
210600000	0.177475271623574	0.175750870639689
210950000	0.189170125002044	0.162027569966297
211300000	0.199652380740345	0.147659669641996
211650000	0.209083376233215	0.132782077607642
212000000	0.21725020787424	0.116819747749354
212350000	0.223956804973851	0.100284929269813
212700000	0.229191919793869	0.0836622087610596
213050000	0.23327976123554	0.0664304459074882
213400000	0.235628995018552	0.0488644253047208
213750000	0.236660390408327	0.03133234887207
214100000	0.23635398016518	0.0138990116405578
214450000	0.234560225022963	-0.0035578687185332
214800000	0.231361297500761	-0.0206369544435222
215150000	0.226466574063557	-0.0376284334774617
215500000	0.22072601507262	-0.0541587753214131
215850000	0.21341956993448	-0.0698268579006364
216200000	0.204748091161277	-0.0851227392875679
216550000	0.194999294040236	-0.0993369025389926
216900000	0.183948211107154	-0.113074146197907
217250000	0.171882207531545	-0.125474702403004
217600000	0.15874922557376	-0.136808937235326
217950000	0.144805094551589	-0.147246914026168
218300000	0.130001777213933	-0.156518045094296
218650000	0.11443528475269	-0.164212950493676
219000000	0.0985818290397454	-0.170772881157459
219350000	0.0817756980796081	-0.175831008691555
219700000	0.0649825613183076	-0.179508235237902
220050000	0.0477242439660552	-0.181727405250914
220400000	0.0304638793551599	-0.182455608708119
220750000	0.0132725169947528	-0.181822872006184
221100000	-0.00391811576923193	-0.179695440250621
221450000	-0.0208603091317839	-0.17608860059366
221800000	-0.0373868405679874	-0.170638352875331
222150000	-0.0533595117722756	-0.16446198073244
222500000	-0.0689068392834752	-0.156653500077321
222850000	-0.0836609431875974	-0.147442506645058
223200000	-0.097596863385144	-0.137224620646423
223550000	-0.110371457511415	-0.125751379137766
223900000	-0.122374891652873	-0.113155098022104
224250000	-0.133074146214751	-0.0997901269523876
224600000	-0.142678010967832	-0.0852525106768559
224950000	-0.151021542968122	-0.0701305543326381
225300000	-0.158072507189564	-0.0544405076369377
225650000	-0.163596393807109	-0.0380605207642601
226000000	-0.167912506356194	-0.0212038385182646
226350000	-0.170703312493099	-0.00444529548366144
226700000	-0.171979974646537	0.0127631800228666
227050000	-0.171881994079232	0.0300724366384469
227400000	-0.17018558994405	0.0470604014603797
227750000	-0.167224839593219	0.0641639328433253
228100000	-0.162849001451501	0.0807058853185433
228450000	-0.156890292862182	0.0968380356770824
228800000	-0.14983159514867	0.112303675195455
229150000	-0.141275551766477	0.127526640058873
229500000	-0.131622819697055	0.141663339984906
229850000	-0.121104680319678	0.155098399956154
230200000	-0.109156623573131	0.167257085008465
230550000	-0.0963773517422168	0.178750446143001
230900000	-0.0826559281295355	0.189042131300776
231250000	-0.0680861776185177	0.198058708084667
231600000	-0.0529393653170953	0.205995401408496
231950000	-0.0371995084688149	0.212648010952832
232300000	-0.0211129511821763	0.217899405765286
232650000	-0.00432641775640648	0.221892182666626
233000000	0.0126754202276826	0.224450245442897
233350000	0.0297714404976323	0.225746266493791
233700000	0.0467797930491397	0.225382967314501
234050000	0.0636275292258057	0.223946387594253
234400000	0.0805820530271829	0.221203126195898
234750000	0.0970956221330796	0.216859871076386
235100000	0.113410322274409	0.211340258717443
235450000	0.128955793385186	0.20460241353014
235800000	0.144039883341544	0.196427720446025
236150000	0.158400634726254	0.18739352518279
236500000	0.172114884282815	0.177051233852915
236850000	0.184913762511256	0.16568267410922
237200000	0.196849636934831	0.1533302986419
237550000	0.207675263018852	0.140060244484407
237900000	0.217495663362811	0.125999829644179
238250000	0.226173666368949	0.111139539963453
238600000	0.233781689784602	0.095791850742253
238950000	0.239962852348997	0.0797747528471366
239300000	0.245054242590724	0.0632608719301165
239650000	0.248545676242005	0.0465030983225403
240000000	0.250942612743186	0.0293119898332979
240350000	0.251936671290581	0.0123079232492016
240700000	0.251622169444285	-0.00512875600809759
241050000	0.250052617473638	-0.0223285559358145
241400000	0.246910146677159	-0.0390920363198778
241750000	0.242596830792634	-0.0559001462641958
242100000	0.23717220048207	-0.0722550153735363
242450000	0.230369992590893	-0.0881993785809015
242800000	0.222209724710824	-0.103477609253451
243150000	0.212685650376522	-0.118116298152828
243500000	0.202487568317013	-0.13194400414161
243850000	0.190719653877721	-0.144891334188967
244200000	0.17823531506475	-0.15683186330007
244550000	0.165099428702813	-0.167962094162398
244900000	0.150801296561865	-0.177805139322496
245250000	0.135743325397136	-0.18678415413387
245600000	0.120259604253275	-0.194206068361878
245950000	0.104124362927034	-0.200731090528124
246300000	0.0873949273180091	-0.205749801924514
