!Agilent N9923A: A.05.17
!Date: Sunday, 01 January 2006 12:17:50
!Model: N9923A
!Serial: MY50371189
!CHECKSUM:2026046659
!Correction: S11(ON U)
!S1P File: Measurement: S11:
# Hz S RI R 50
200000000	-0.944909377355266	0.258119135925667
201300000	-0.919507494661271	0.335787466420889
202600000	-0.887726646423041	0.411199463784995
203900000	-0.849797311296234	0.483110876518488
205200000	-0.805941286423323	0.551499002895644
206500000	-0.756779830298951	0.615661700899535
207800000	-0.702127120871403	0.675308499434525
209100000	-0.643160544292553	0.729853314550595
210400000	-0.579330852721918	0.779760470987039
211700000	-0.512190678466238	0.824063712532599
213000000	-0.44132153678176	0.862756108767299
214300000	-0.367533133425582	0.895063910874198
215600000	-0.291818536997354	0.921168255642324
216900000	-0.21498894309149	0.940704358887597
218200000	-0.136765378616015	0.953808963371317
219500000	-0.0587400052288169	0.960699878227773
220800000	0.0208325788385755	0.961068573722948
222100000	0.0991543226819415	0.955183109429572
223400000	0.176685869788709	0.943099517525312
224700000	0.253444016743173	0.924631381959959
226000000	0.328577408688091	0.899704304846598
227300000	0.402111269519772	0.869572736602825
228600000	0.472153960631103	0.833302930817937
229900000	0.539029606314372	0.791797413965915
231200000	0.60234939085863	0.744896003110875
232500000	0.661145437853148	0.693050178662128
233800000	0.716368903234695	0.637271860106746
235100000	0.766724113030569	0.576827748118561
236400000	0.811627908675122	0.512473952303196
237700000	0.851965633932384	0.445275145429026
239000000	0.886470923583103	0.374438160905982
240300000	0.915155378328458	0.301346585095631
241600000	0.938020724287492	0.226052493681853
242900000	0.954797595340799	0.149000027016639
244200000	0.965599157765604	0.0708178206248593
245500000	0.969807693560838	-0.00811663611285821
246800000	0.967551416578999	-0.087396828467807
248100000	0.958989955802804	-0.166294519647146
249400000	0.943903651261164	-0.244205650322353
250700000	0.922111114119913	-0.321017309392349
252000000	0.894489794369069	-0.395738290023436
253300000	0.860560305279678	-0.46838967732116
254600000	0.820399667120201	-0.537982384703004
255900000	0.774651229022758	-0.604036141065907
257200000	0.723157732417112	-0.666279439256334
258500000	0.666300480900828	-0.724112442231942
259800000	0.60500386230397	-0.777067603863633
261100000	0.538975102128194	-0.824678098976341
262400000	0.469052626375447	-0.866645406589351
263700000	0.395265476024122	-0.902457807981433
265000000	0.319053317252382	-0.931740446587587
266300000	0.240083259828021	-0.955089184167478
267600000	0.159226319213671	-0.971268343629796
268900000	0.0772042509489693	-0.980385641135852
270200000	-0.00508693177356698	-0.982228351714868
271500000	-0.0875004701968831	-0.977274918799237
272800000	-0.169665025166444	-0.965236864614851
274100000	-0.250383392045344	-0.945886692711862
275400000	-0.329094938249828	-0.919982727607148
276700000	-0.405593747389402	-0.887487387300065
278000000	-0.478889588401478	-0.847695901278535
279300000	-0.548600374216361	-0.802530305436947
280600000	-0.613959651835759	-0.751782092552606
281900000	-0.675230018972785	-0.695844525780601
283200000	-0.730867060254077	-0.634391393649094
284500000	-0.78146440480321	-0.569124246588172
285800000	-0.825980478806549	-0.499422710974372
287100000	-0.86482052106765	-0.42641855319505
288400000	-0.89731751553226	-0.350706315285076
289700000	-0.922769532699432	-0.272256840457006
291000000	-0.942000593096511	-0.192379103255207
292300000	-0.954439201933394	-0.11107922678738
293600000	-0.959615660939899	-0.0296965292777727
294900000	-0.958279099198506	0.0520359601523997
296200000	-0.949998809275459	0.133105139473379
297500000	-0.93510392986265	0.213114220350571
298800000	-0.913731053898006	0.291096943637913
300100000	-0.886057055239665	0.367189211496839
301400000	-0.852347826377059	0.44051679664771
302700000	-0.812551142874451	0.510357737751079
304000000	-0.767335319420232	0.576638414363165
305300000	-0.71695793688971	0.6387520289074
306600000	-0.661829454497084	0.696367508904878
307900000	-0.60220721392191	0.748762688386159
309200000	-0.538639819596734	0.796450900881631
310500000	-0.471749830568849	0.838631370101742
311800000	-0.401800559759122	0.87497809123918
313100000	-0.328842486632181	0.905128787234393
314400000	-0.254015010781015	0.929569977939877
315700000	-0.177454536991766	0.947089782932699
317000000	-0.0999273587696547	0.958565759858862
318300000	-0.0221791552828591	0.963638689164061
319600000	0.0558010530287657	0.962391184406468
320900000	0.133662248657976	0.954494137722184
322200000	0.210018839890875	0.940622529539901
323500000	0.285303095199449	0.920197289335293
324800000	0.358430304903691	0.894341601902031
326100000	0.428837182541812	0.861893382966852
327400000	0.496571117818883	0.824057101706522
328700000	0.561193418864357	0.781093130110199
330000000	0.622128441386013	0.732652662465752
331300000	0.679040774925855	0.679688722281268
332600000	0.731400224808168	0.622340385138581
333900000	0.779147623798703	0.561039576036806
335200000	0.821535017897377	0.49628287102179
336500000	0.858745866046257	0.427811417155171
337800000	0.89052687837589	0.356914002610811
339100000	0.916358056218016	0.283580831443406
340400000	0.936121740745977	0.207951753604773
341700000	0.950190826596765	0.130821506837285
343000000	0.957696731124625	0.0528438184133046
344300000	0.959082950513238	-0.0258463810974756
345600000	0.954088795806521	-0.104167062457331
346900000	0.943039767470212	-0.182415300752594
348200000	0.925017990327941	-0.259429212555595
349500000	0.901152661951462	-0.335030305521807
350800000	0.871046799678976	-0.408943349081696
352100000	0.834804426776732	-0.479811731904205
353400000	0.792571147356823	-0.548017991789872
354700000	0.745223540581685	-0.612429313365985
356000000	0.692462117996848	-0.673399857238653
357300000	0.634525007339527	-0.729452287728844
358600000	0.57206051153388	-0.780937528388404
359900000	0.50553409554401	-0.826814030604557
361200000	0.435043711983912	-0.867464096605907
362500000	0.361327364986625	-0.902072556683755
363800000	0.284467729534111	-0.930439321441453
365100000	0.205568416291867	-0.952160342318876
366400000	0.124723252278314	-0.967272268977252
367700000	0.0430315629417764	-0.97557678921785
369000000	-0.0392824342396175	-0.976313546322564
370300000	-0.121558082202423	-0.969932877556566
371600000	-0.2034075223988	-0.956573290565397
372900000	-0.283467960401391	-0.936438949646338
374200000	-0.361875894604392	-0.909302620043093
375500000	-0.437556562162564	-0.875308285187296
376800000	-0.509909453597773	-0.834869217951969
378100000	-0.578314937299659	-0.788139413450078
379400000	-0.642916036430807	-0.735194826056999
380700000	-0.702234562429659	-0.677610435768857
382000000	-0.756612143241561	-0.614338593272063
383300000	-0.805357747718081	-0.546892941486197
384600000	-0.847732581439659	-0.475755349593243
385900000	-0.883891093654932	-0.400768656776079
387200000	-0.913262239932884	-0.323596090176743
388500000	-0.935774979926852	-0.243871062964259
389800000	-0.951391347384718	-0.163125948062899
391100000	-0.960192949189099	-0.0809206853012604
392400000	-0.9617501451454	0.00106156671418552
393700000	-0.956223330085604	0.0824406357923117
395000000	-0.943925457117958	0.163249101407016
396300000	-0.925179639134119	0.242654736382481
397600000	-0.899490655174851	0.319926271122113
398900000	-0.867732413243651	0.394741606664505
400200000	-0.829600643306861	0.4663646761975
401500000	-0.785961494017385	0.533939377716819
402800000	-0.736907098143988	0.597979463382442
404100000	-0.682953209651294	0.657145432424991
405400000	-0.624783393719831	0.711755171402033
406700000	-0.562388777768927	0.761356312502244
408000000	-0.499186477769143	0.804454286971764
409300000	-0.429845716905991	0.842963890700022
410600000	-0.358170508476166	0.87562303076838
411900000	-0.283583083359333	0.90251636514956
413200000	-0.207584533082967	0.923006278269295
414500000	-0.13100628348077	0.937566905052067
415800000	-0.0531107590254777	0.945296784843823
417100000	0.0248460400765126	0.94704233890093
418400000	0.1022445954697	0.942618227733803
419700000	0.179194423149121	0.931928928750671
421000000	0.254241121136364	0.91543814248807
422300000	0.327888347517983	0.892562159823252
423600000	0.399526970168689	0.86447329481475
424900000	0.468457088217307	0.830417689133169
426200000	0.534067572002658	0.791716086904844
427500000	0.596280992629561	0.747060943002614
428800000	0.654974346652034	0.698061663123082
430100000	0.709584231142285	0.644550016196572
431400000	0.759638830527671	0.586660093518119
432700000	0.804688833612969	0.525434191301769
434000000	0.844969255934607	0.460268744611919
435300000	0.879244406274213	0.392604589256685
436600000	0.908659163792965	0.321985181678017
437900000	0.93241569529232	0.249164950337659
439200000	0.949682473240994	0.174683707392809
440500000	0.96105773153692	0.0990333123931055
441800000	0.966477128777241	0.0221035261167234
443100000	0.965476311166444	-0.0550282648033705
444400000	0.95876537937263	-0.131855647758856
445700000	0.945446089234585	-0.208181751502932
447000000	0.92606514573158	-0.283457129854229
448300000	0.900356904642024	-0.357135928421127
449600000	0.868347516034424	-0.428780911079825
450900000	0.83126535575847	-0.497793852773195
452200000	0.787965693740062	-0.563912003194118
453500000	0.739271083628846	-0.626104713193654
454800000	0.685607157289075	-0.685143622795094
456100000	0.62669806908377	-0.73900709714163
457400000	0.56305501175405	-0.788310647804869
458700000	0.495633487239676	-0.832565378679884
460000000	0.424452626114246	-0.870777030851188
461300000	0.349790754319757	-0.902945946223275
462600000	0.272493185673367	-0.929211278717953
463900000	0.192635852374413	-0.948964469732988
465200000	0.111406403497206	-0.961899866070197
466500000	0.0287901388695726	-0.967761089196832
467800000	-0.0538815987531809	-0.966060357392906
469100000	-0.136331533735917	-0.957507543743489
470400000	-0.218308228410851	-0.942320293669468
471700000	-0.29870590280802	-0.919757978089102
473000000	-0.377318785449177	-0.890442244335372
474300000	-0.452778876561189	-0.854131759881399
475600000	-0.524689044836076	-0.811436325370227
476900000	-0.592746205554344	-0.762885718725454
478200000	-0.657029393909078	-0.708146239509187
479500000	-0.715634291977001	-0.64837608720617
480800000	-0.768885080950206	-0.583630265855156
482100000	-0.816275529743548	-0.514632706577733
483400000	-0.857138971039019	-0.441595736830949
484700000	-0.891820291952668	-0.36531989131496
486000000	-0.919600987716417	-0.287087416436936
487300000	-0.940097908674992	-0.206353545757415
488600000	-0.953492436999204	-0.124535841070943
489900000	-0.95976755585592	-0.0420551166983738
491200000	-0.958962947575771	0.0401957929410065
492500000	-0.951010830833692	0.121793315499621
493800000	-0.936223453223091	0.202338922616747
495100000	-0.91464132538003	0.280335156367276
496400000	-0.886492287658805	0.356565053891741
497700000	-0.851812944460448	0.429832947799066
499000000	-0.81160070802483	0.499105883159719
500300000	-0.766093581742632	0.564796331345745
501600000	-0.715435300126586	0.626216952852872
502900000	-0.659353473413609	0.682586035584955
504200000	-0.599875930786871	0.734142259568981
505500000	-0.536176523981895	0.781163425902174
506800000	-0.469007676461828	0.821502424778225
508100000	-0.399284432761351	0.856656114544606
509400000	-0.327333034762017	0.885814978577564
510700000	-0.253254162634494	0.909541105988591
512000000	-0.17763574972305	0.926886091015667
513300000	-0.101582220437313	0.937945805798699
514600000	-0.0248048802048694	0.943431703062816
515900000	0.0519366008944733	0.941584634661202
517200000	0.128230071698555	0.934550380438817
518500000	0.203824222501126	0.921560567315274
519800000	0.277841586938009	0.902564162430451
521100000	0.349838937784803	0.877490177929224
522400000	0.4198737017523	0.846489107240486
523700000	0.487387519643793	0.810823285105435
525000000	0.551923106621547	0.769844394632288
526300000	0.612709523662455	0.723529759679099
527600000	0.66951246725759	0.672428574127928
528900000	0.722329959412488	0.617483462810325
530200000	0.77056999170172	0.55794286036609
531500000	0.814259944251026	0.49506391366519
532800000	0.853058075563702	0.428890111170281
534100000	0.886077528653433	0.359498060084833
535400000	0.913155840660574	0.287463433340325
536700000	0.935158386524631	0.213368779580415
538000000	0.950751755647765	0.137496476150781
539300000	0.960191377975814	0.0605851593104788
540600000	0.963277731412728	-0.0169729094729745
541900000	0.960350485665433	-0.0949015558870106
543200000	0.950638179084172	-0.172394491568289
544500000	0.934755984406196	-0.248969298887016
545800000	0.912650875568582	-0.324439089475107
547100000	0.883943451513837	-0.397721071464782
548400000	0.849256543748952	-0.468745046962331
549700000	0.808719015135247	-0.536610750258095
551000000	0.762543820822581	-0.601288663438017
552300000	0.711166970271642	-0.662014986402987
553600000	0.65423472239242	-0.718214865419966
554900000	0.592919889473938	-0.769652183705447
556200000	0.527496956632622	-0.816137259309201
557500000	0.457788938911562	-0.856823313462006
558800000	0.385001775931728	-0.890884412237528
560100000	0.309423450031924	-0.919558760648082
561400000	0.231094287812827	-0.941867645772634
562700000	0.151126913222135	-0.957031462168489
564000000	0.0702461597771674	-0.965818907648852
565300000	-0.0108849108599042	-0.967414518835938
566600000	-0.0926536330871046	-0.962215496694206
567900000	-0.173515791418642	-0.949478234352955
569200000	-0.253731482285615	-0.930685456834684
570500000	-0.331801736615837	-0.904918714584543
571800000	-0.407643742084558	-0.872490015057641
573100000	-0.480038077594083	-0.833262259358915
574400000	-0.549452072093154	-0.788196011854271
575700000	-0.614451993772349	-0.737600177129902
577000000	-0.675015510753236	-0.681341615963798
578300000	-0.730389753945787	-0.620573140754575
579600000	-0.780425352321012	-0.55419692925441
580900000	-0.824756520130911	-0.484498918113916
582200000	-0.863119787515445	-0.410821796520906
583500000	-0.895050479017912	-0.334907615951169
584800000	-0.919400021062414	-0.255998132019409
586100000	-0.937701257920115	-0.175713764037737
587400000	-0.948650850684676	-0.0938512326029623
588700000	-0.952831826625868	-0.0116279646915167
590000000	-0.949725235013015	0.0703045062637346
591300000	-0.93953759684328	0.151516069510783
592600000	-0.92259090868125	0.231599552367126
593900000	-0.899035597036536	0.309565852781791
595200000	-0.868853107202946	0.385196649451479
596500000	-0.832410630878624	0.457435629411417
597800000	-0.790293160811465	0.526372741246995
599100000	-0.742657302680988	0.591259996002497
600400000	-0.689567699326522	0.651447412746604
601700000	-0.632008801801407	0.706467433519053
603000000	-0.570005930494264	0.756346504938273
604300000	-0.504536355824583	0.801109108756453
605600000	-0.435897320309139	0.839564174904562
606900000	-0.364685998202567	0.872178548739616
608200000	-0.290829585941478	0.898452513028027
609500000	-0.215526733988697	0.918786953581448
610800000	-0.13921581912924	0.932691281203027
612100000	-0.0622094615331996	0.940049340768798
613400000	0.0146211540687093	0.941254217622405
614700000	0.0907779352521748	0.936440083717344
616000000	0.166721113440171	0.925109862810087
617300000	0.240958793480437	0.907978977608197
618600000	0.313290219936689	0.885583134009393
619900000	0.383338211030657	0.857121080813729
621200000	0.4508466654852	0.823170832201157
622500000	0.515357291730763	0.784051448514053
623800000	0.576326158754294	0.740243216826699
625100000	0.634107278039348	0.692198157774688
626400000	0.687429163271984	0.639567002620685
627700000	0.736953135473429	0.583128904853206
629000000	0.781409935484273	0.522719402137909
630300000	0.820972952117761	0.459589426022185
631600000	0.855839843527367	0.392763532668853
632900000	0.885340938798145	0.323633334996924
634200000	0.909467589104331	0.252830275756394
635500000	0.928221938503068	0.180069879583743
636800000	0.941198254516145	0.106003229493089
638100000	0.948405337955092	0.0306491773942881
639400000	0.949463231127427	-0.0448352313756567
640700000	0.944829633476127	-0.120963631895702
642000000	0.933935526122883	-0.19627436745131
643300000	0.917207454484852	-0.271135500845405
644600000	0.894484388752877	-0.344176484479668
645900000	0.865394152316642	-0.415950559254627
647200000	0.830789751901781	-0.485446539052404
648500000	0.790542207623299	-0.55200623827219
649800000	0.744815380426531	-0.615537378503668
651100000	0.693610540750662	-0.675613245549446
652400000	0.637327640728747	-0.730758168319973
653700000	0.576447166602585	-0.781785099089967
655000000	0.511272553563947	-0.827829733113713
656300000	0.44165989670789	-0.868114236203554
657600000	0.368716212235134	-0.902854861929512
658900000	0.29295418288682	-0.931086016689695
660200000	0.214387065466645	-0.952413411620315
661500000	0.134599459485005	-0.96773715102292
662800000	0.0530935675232462	-0.975833286986018
664100000	-0.0295805849487441	-0.976533684395448
665400000	-0.111997520952764	-0.970118877287239
666700000	-0.193172842636088	-0.956233964175916
668000000	-0.273292597862372	-0.934914737380812
669300000	-0.351625363922012	-0.907022880829125
670600000	-0.427167204600369	-0.872672280201389
671900000	-0.499852892452347	-0.831039574540712
673200000	-0.567604177424733	-0.783407110003974
674500000	-0.631771283590308	-0.729806089743844
675800000	-0.690610966846413	-0.670905377479645
677100000	-0.744079851504316	-0.607437196885537
678400000	-0.792059384961167	-0.539006762934131
679700000	-0.833603756628896	-0.467351237114898
681000000	-0.868678508034059	-0.391952863390896
682300000	-0.896680357626975	-0.314165988270265
683600000	-0.918668107315973	-0.234456643034923
684900000	-0.933157202620465	-0.153570968032096
686200000	-0.940655767380077	-0.0717228066844864
687500000	-0.94144634641382	0.0103916693084907
688800000	-0.935262923630269	0.0914969069161741
690100000	-0.922069652331236	0.171809843118336
691400000	-0.90259304273491	0.250359217673634
692700000	-0.87612072802727	0.326718066919347
694000000	-0.844101431580608	0.40024235496963
695300000	-0.805470298258594	0.470751263893051
696600000	-0.762203322158282	0.537335278461377
697900000	-0.713072110263867	0.599955084080241
699200000	-0.659108253100963	0.658439589916103
700500000	-0.601153915993203	0.711398294622138
701800000	-0.539352184119611	0.759993382816854
703100000	-0.474110193795372	0.802722738377418
704400000	-0.405708141498744	0.839855389264725
705700000	-0.334737018435712	0.871497975878509
707000000	-0.261256740681988	0.897043045739334
708300000	-0.186746979567796	0.916194889529415
709600000	-0.110675702029363	0.929622150921329
710900000	-0.0345734285485963	0.936723228229874
712200000	0.0421465349731533	0.937432287513638
713500000	0.118508575049344	0.932205658351465
714800000	0.194065081650374	0.921096882400161
716100000	0.267754170360386	0.903131130314905
717400000	0.340210099937571	0.879855656667379
718700000	0.409747341574089	0.850773575620644
720000000	0.476768549780185	0.816095627391609
721300000	0.541312744305033	0.776057651641702
722600000	0.602093553054796	0.730835777593278
723900000	0.658992448685397	0.681575054119428
725200000	0.711276779060249	0.627746325045814
726500000	0.758976110424867	0.569447604218079
727800000	0.802688369287903	0.508158286516218
729100000	0.840610689434449	0.443152236295726
730400000	0.873163455977364	0.375720021400797
731700000	0.90035595094137	0.304874271274063
733000000	0.921904603222172	0.232744575304981
734300000	0.937663721054578	0.158638040380211
735600000	0.947555174837985	0.0836149214589329
736900000	0.951485375381063	0.00843567523968382
738200000	0.949390281326889	-0.0675358963051958
739500000	0.941294011507413	-0.142677931626381
740800000	0.927114211877505	-0.217676816561408
742100000	0.907062729745611	-0.290988494544362
743400000	0.881199869545326	-0.362914430589392
744700000	0.849366277601267	-0.432696291154361
746000000	0.811870216977541	-0.500010864434801
747300000	0.769597930616184	-0.564059734339201
