!Agilent N9923A: A.05.17
!Date: Sunday, 01 January 2006 12:22:13
!Model: N9923A
!Serial: MY50371189
!CHECKSUM:1827783542
!Correction: S11(ON U)
!S1P File: Measurement: S11:
# Hz S RI R 50
200000000	0.942919852039783	-0.212779677437861
201300000	0.922205318221324	-0.289806829903239
202600000	0.894970398257003	-0.365572279938908
203900000	0.8622974093789	-0.438527482066598
205200000	0.823507077594454	-0.508723515535094
206500000	0.779324908550357	-0.575801500373405
207800000	0.729766603111438	-0.639140738699805
209100000	0.674629459639293	-0.698778663045291
210400000	0.615165280962051	-0.753376320345485
211700000	0.550128453245286	-0.803453289646209
213000000	0.481697309353004	-0.84792840829698
214300000	0.409272886998544	-0.886623506280301
215600000	0.334889848225483	-0.919559937450147
216900000	0.257683939594258	-0.945559095729044
218200000	0.179191205980428	-0.965452615637518
219500000	0.0980712429488255	-0.978569389161594
220800000	0.0168130214436197	-0.985313954531365
222100000	-0.0652876696814224	-0.984476373602326
223400000	-0.146609657926141	-0.976945248378834
224700000	-0.227956456822256	-0.962082260765564
226000000	-0.308874099441649	-0.93993579896231
227300000	-0.387322513250408	-0.911141368217278
228600000	-0.462877602429992	-0.875473043972373
229900000	-0.535068784973953	-0.833372644727394
231200000	-0.603188512755505	-0.785363777593347
232500000	-0.666874337645436	-0.731764759321436
233800000	-0.725233969671012	-0.672558859990286
235100000	-0.778684567067825	-0.608406902462692
236400000	-0.82634426328853	-0.540048461853533
237700000	-0.86766182548429	-0.467520739197213
239000000	-0.902301826639906	-0.392241916663048
240300000	-0.930474526747746	-0.31367967121967
241600000	-0.951740053304055	-0.233914320774014
242900000	-0.965910326133231	-0.15219446218004
244200000	-0.973207999645237	-0.069625249659724
245500000	-0.97323007656457	0.0127703234123286
246800000	-0.966605023748172	0.0948354593773034
248100000	-0.953164790915866	0.175916923998685
249400000	-0.932515020677788	0.255320971475278
250700000	-0.905994588872613	0.332482834568818
252000000	-0.872782528923641	0.407067877005551
253300000	-0.833619658109412	0.478424866770526
254600000	-0.788805008691947	0.546219749714895
255900000	-0.738801639563123	0.609740289909347
257200000	-0.684136625083794	0.668882795946184
258500000	-0.624836744366178	0.723095678389025
259800000	-0.56115991697439	0.772107320172979
261100000	-0.494476458118176	0.816354626988024
262400000	-0.424192381917782	0.854066930979943
263700000	-0.351519775052958	0.886425411881758
265000000	-0.276792320263983	0.913091902700429
266300000	-0.200019357845463	0.933072199645197
267600000	-0.122170582606717	0.946773188146223
268900000	-0.0437126082183161	0.954337680686657
270200000	0.0351062431218696	0.9560102687822
271500000	0.113615653834215	0.951142402500649
272800000	0.191005416551842	0.93964980300108
274100000	0.267634623599997	0.922465786932307
275400000	0.342328536226122	0.899539350842356
276700000	0.414849710350894	0.870259449167391
278000000	0.48512071322283	0.835556439470925
279300000	0.55215331296582	0.795369379587799
280600000	0.615440607658114	0.749302930904771
281900000	0.674814531287528	0.698847666091188
283200000	0.730516323519227	0.643406533571551
284500000	0.781057707180657	0.583562282217514
285800000	0.826550176850295	0.519711951742111
287100000	0.866663318663272	0.452220504161497
288400000	0.901334707724206	0.381484859978605
289700000	0.929961258948254	0.308017351362562
291000000	0.952658067760615	0.232638588912009
292300000	0.968553787591889	0.155253220466089
293600000	0.978568831172972	0.0767969575141726
294900000	0.981512355374189	-0.00285015406540831
296200000	0.977979195890144	-0.0822782824099647
297500000	0.967681720382315	-0.16154915106186
298800000	0.951068133654174	-0.239663735997016
300100000	0.927941145004875	-0.316204460810965
301400000	0.898022688871573	-0.390797617470685
302700000	0.862703105480362	-0.463258016428933
304000000	0.820688357126152	-0.532370958080093
305300000	0.773152733749458	-0.597697419852983
306600000	0.720084259189979	-0.659263186276024
307900000	0.662101464725731	-0.716631617506566
309200000	0.599469136745535	-0.768552052980522
310500000	0.532192942775522	-0.815218057254343
311800000	0.461001772655292	-0.85618483588118
313100000	0.38687109893184	-0.891382668526142
314400000	0.309838031657496	-0.920067899588683
315700000	0.230381288073243	-0.942697014302711
317000000	0.149025360542014	-0.958236177973715
318300000	0.0666195863023613	-0.96723771686505
319600000	-0.0159351251272278	-0.968840602751782
320900000	-0.0987673506033673	-0.963737414233184
322200000	-0.181311713048779	-0.951366007635911
323500000	-0.262102494806882	-0.932665324959342
324800000	-0.341213046276161	-0.906539314694824
326100000	-0.417877265134932	-0.874096642369497
327400000	-0.491957908052038	-0.835418413927411
328700000	-0.561678053135913	-0.790252281240513
330000000	-0.627721174987642	-0.739540551582136
331300000	-0.689289339990748	-0.683441520147236
332600000	-0.745668875776382	-0.622645519144442
333900000	-0.796675440501137	-0.556989191313657
335200000	-0.841740250635981	-0.487471159673068
336500000	-0.880684314233078	-0.414360138432445
337800000	-0.913213954814194	-0.338267266832663
339100000	-0.939029286412185	-0.260062583355591
340400000	-0.95771793873144	-0.179683993039427
341700000	-0.969683152443092	-0.0984285734004101
343000000	-0.974507000534953	-0.0167004519986306
344300000	-0.972373669838008	0.0651050147315867
345600000	-0.963207960485231	0.146209613463376
346900000	-0.947110278296666	0.225909394259279
348200000	-0.924584893661674	0.303626764239103
349500000	-0.895168825294632	0.379043823409179
350800000	-0.859823356118611	0.451641989960084
352100000	-0.818423112332971	0.52084192599904
353400000	-0.771570548424296	0.586102121131155
354700000	-0.719885883149621	0.646859074731811
356000000	-0.662833419421505	0.703147019070798
357300000	-0.601715296022989	0.754132373362752
358600000	-0.536444302971406	0.799649279547655
359900000	-0.46808552159454	0.840029701479208
361200000	-0.396938209562045	0.874017294981582
362500000	-0.323304385396572	0.902172525510333
363800000	-0.247996910967265	0.924488357062184
365100000	-0.170602654799231	0.940203772350789
366400000	-0.0930247145061927	0.950016406244395
367700000	-0.0148541163655476	0.952949956173381
369000000	0.0633409057597738	0.950191026209426
370300000	0.140875077997353	0.940999318832968
371600000	0.216874990978394	0.925411874609399
372900000	0.291945720890416	0.904237947465353
374200000	0.364585873354902	0.876596440195648
375500000	0.434951074300555	0.843882201516326
376800000	0.502487436529821	0.805571009210496
378100000	0.567004025154179	0.761962372602516
379400000	0.627335493944511	0.713757154547116
380700000	0.683873465737111	0.66076447019097
382000000	0.735972108049796	0.603229368512388
383300000	0.783568382079268	0.541993829968292
384600000	0.826277966113253	0.476825319713405
385900000	0.863217431641581	0.409063739453045
387200000	0.894987149522423	0.338360902873614
388500000	0.921078488635388	0.265043258290557
389800000	0.941466637631497	0.190086821528451
391100000	0.955513341106166	0.113471961837311
392400000	0.963669355580059	0.0359532304144313
393700000	0.965323521502892	-0.0421773273523898
395000000	0.960771630912222	-0.120222200178298
396300000	0.949731079382713	-0.197855290890773
397600000	0.932477377439241	-0.27440095715798
398900000	0.908802383161461	-0.349489619445103
400200000	0.879173380503805	-0.422686919096469
401500000	0.843288316513999	-0.493098065629131
402800000	0.801907738539692	-0.560651227645802
404100000	0.754698792654752	-0.624512155418541
405400000	0.701961617740404	-0.684566764071128
406700000	0.64444884210674	-0.740106685954183
408000000	0.582156978739367	-0.790706415074421
409300000	0.515558751641341	-0.835870591598503
410600000	0.445240447172501	-0.87556101572479
411900000	0.371862829014426	-0.909162864232548
413200000	0.295074796933571	-0.936463917226367
414500000	0.216017978286773	-0.957385961853263
415800000	0.13556738693506	-0.971409906484507
417100000	0.0537963746463999	-0.97837853528828
418400000	-0.0282742694514266	-0.978592865306727
419700000	-0.110562478521674	-0.971365163361944
421000000	-0.192244787117464	-0.95695878780121
422300000	-0.272275808480371	-0.93607577006012
423600000	-0.350289396510745	-0.907866789376395
424900000	-0.425903998450189	-0.873377553905995
426200000	-0.498508195264293	-0.832125665855402
427500000	-0.567244886262873	-0.784792162577448
428800000	-0.631959066744889	-0.731574944973587
430100000	-0.691454777633679	-0.673505894722551
431400000	-0.745942535937208	-0.610011957355702
432700000	-0.795040848380128	-0.541856081349966
434000000	-0.837524057799254	-0.470280942330903
435300000	-0.874151941195176	-0.395004578495703
436600000	-0.904088583308381	-0.31659555217608
437900000	-0.927647357657085	-0.236882199972753
439200000	-0.943413450806034	-0.15490442238824
440500000	-0.952431633753383	-0.0724650651924441
441800000	-0.954654231359258	0.0105314842524616
443100000	-0.949507515167798	0.0930589923846628
444400000	-0.937380573683248	0.174701065002086
445700000	-0.918725449583202	0.254867026387977
447000000	-0.893150635042508	0.332500184645614
448300000	-0.861306791209477	0.407883030427214
449600000	-0.823389543579989	0.479994537831384
450900000	-0.780027643122703	0.548119850175992
452200000	-0.730859924531296	0.611985623129507
453500000	-0.676925918396412	0.671709023277044
454800000	-0.618497871376012	0.726009179852379
456100000	-0.555904896015978	0.775120874393252
457400000	-0.489709561843084	0.818617623046553
458700000	-0.420637725666581	0.856328017154174
460000000	-0.348698703539701	0.888301967559677
461300000	-0.275067031968432	0.914035657583683
462600000	-0.199891022443877	0.93340576768122
463900000	-0.123668262175158	0.946477604677311
465200000	-0.046500112148958	0.953191375582753
466500000	0.0299747525093448	0.954118035810437
467800000	0.106696610707514	0.948253167866794
469100000	0.18252228336366	0.936889464471638
470400000	0.256516281264548	0.918657700434455
471700000	0.32902757139158	0.89557624854468
473000000	0.398827535020412	0.86652584898908
474300000	0.466377274142638	0.831756764112079
475600000	0.531141635300183	0.79178311416254
476900000	0.592504388064088	0.747216552707443
478200000	0.649328601430866	0.698051298628845
479500000	0.702716439605727	0.643938146450639
480800000	0.751899880841039	0.586287516487678
482100000	0.795999019325718	0.525162581673662
483400000	0.835289589052003	0.460148247202545
484700000	0.869671821628824	0.392498208330704
486000000	0.898589016053797	0.321603522062045
487300000	0.922087729526839	0.249036911123468
488600000	0.939402077314617	0.174980239201003
489900000	0.951234235356754	0.0988474945210588
491200000	0.956940130443846	0.0223417721730481
492500000	0.956218888492339	-0.0550698459314552
493800000	0.949834279476416	-0.132510783806641
495100000	0.93703905708898	-0.209394598801382
496400000	0.91820576092967	-0.28510136006857
497700000	0.892643642029373	-0.359879432079767
499000000	0.861401237916485	-0.432070548227313
500300000	0.824493445526109	-0.501856656799921
501600000	0.781386625727732	-0.568743921077733
502900000	0.732821852872441	-0.632280877626312
504200000	0.679097450151584	-0.69180907099077
505500000	0.620214968128793	-0.746755501567396
506800000	0.556577833506861	-0.796603431970785
508100000	0.489037971102269	-0.841360082444341
509400000	0.41698578676864	-0.880363950922398
510700000	0.342187018157171	-0.913114787516001
512000000	0.264719102049957	-0.93924065266741
513300000	0.184678953180109	-0.958990515332395
514600000	0.103364625435936	-0.971407169764984
515900000	0.0208191601999245	-0.977586665511578
517200000	-0.0621933554193044	-0.975589954585207
518500000	-0.144599539860725	-0.966710882844706
519800000	-0.22609199853582	-0.950550040495184
521100000	-0.30619762051964	-0.927619650781987
522400000	-0.383579443313186	-0.897589515651016
523700000	-0.458033494733706	-0.860496015160516
525000000	-0.528977392357722	-0.817400624238845
526300000	-0.596182340462892	-0.768316095545999
527600000	-0.658879774769658	-0.713644556990968
528900000	-0.716089296669106	-0.65327473233144
530200000	-0.767874939791214	-0.588647156556946
531500000	-0.814091837667701	-0.519591734526027
532800000	-0.853801348912464	-0.447046850971145
534100000	-0.886512513523297	-0.371408303228124
535400000	-0.913657967506826	-0.293763616570448
536700000	-0.933293612756759	-0.213882220943136
538000000	-0.946454700546745	-0.133035770147562
539300000	-0.952485315514786	-0.0513614826739587
540600000	-0.951295916555804	0.0298771000395084
541900000	-0.943897527603127	0.111007952920841
543200000	-0.92941795318691	0.190692602636868
544500000	-0.908413853395275	0.268982934641896
545800000	-0.881082304558592	0.344607108843805
547100000	-0.847636547041432	0.417644620970965
548400000	-0.808486728970655	0.487520963085923
549700000	-0.763969119326886	0.554096868221288
551000000	-0.714015310787049	0.616205056377648
552300000	-0.659472830305474	0.673779723293336
553600000	-0.60057590474373	0.726955332871594
554900000	-0.537657502795793	0.774624354708481
556200000	-0.471397365113543	0.816757927627931
557500000	-0.401824032253845	0.853444904544865
558800000	-0.329797171459956	0.884440441909812
560100000	-0.255539535269563	0.909461425554352
561400000	-0.179854861635757	0.92834685000722
562700000	-0.102538644567748	0.9407629753457
564000000	-0.0255738253940205	0.946810578289583
565300000	0.052324373611807	0.946704698393039
566600000	0.128994236046596	0.940394745079111
567900000	0.205379318147175	0.928085454157142
569200000	0.28007043736702	0.909349407481776
570500000	0.352917845613281	0.884568814216967
571800000	0.423281548646591	0.854534633939404
573100000	0.491248848259057	0.818530463108745
574400000	0.555880605055196	0.777446183270342
575700000	0.617120146054649	0.730797552588039
577000000	0.673590093498586	0.679874511422277
578300000	0.726590520047243	0.624006413630246
579600000	0.77436546219729	0.564383528967505
580900000	0.817423501166675	0.501366609336568
582200000	0.855198611047292	0.435163056797244
583500000	0.887215213977724	0.365734597397486
584800000	0.9138431367413	0.293914799089382
586100000	0.934462126164655	0.220290724975235
587400000	0.949165791708542	0.144752196975609
588700000	0.957779011443981	0.0685916095613986
590000000	0.95988088712848	-0.00778906983413552
591300000	0.956576523971101	-0.0850575293368502
592600000	0.946463904338146	-0.161305705809212
593900000	0.930325645069302	-0.236951415407283
595200000	0.908116206486832	-0.311243350429384
596500000	0.88025161035916	-0.383500030919732
597800000	0.84621942808536	-0.453834310600134
599100000	0.806889910900815	-0.520907592607776
600400000	0.762037544561532	-0.585234648229889
601700000	0.711753255368626	-0.645941039999491
603000000	0.656692010699359	-0.70250480797175
604300000	0.596597944178504	-0.754561644390108
605600000	0.532571619948622	-0.80147395431247
606900000	0.464857921129086	-0.843655435693533
608200000	0.393164046551632	-0.879654584652483
609500000	0.318577328228609	-0.909895409160095
610800000	0.241619891792071	-0.934309038010955
612100000	0.162583090821652	-0.95189271888698
613400000	0.0816789077800183	-0.96310974625059
614700000	-0.000233682050231188	-0.967503544993621
616000000	-0.0824574014956877	-0.965026196013827
617300000	-0.164134909863935	-0.954995123919622
618600000	-0.244930744756512	-0.938142436236015
619900000	-0.324498790140782	-0.914162715963184
621200000	-0.401881545645224	-0.88361611436265
622500000	-0.476125255628367	-0.846043016951712
623800000	-0.547194748068653	-0.802062527956836
625100000	-0.614273129590258	-0.751893302405612
626400000	-0.677208067040785	-0.696220166504937
627700000	-0.734346516705164	-0.635298368971297
629000000	-0.786184192649326	-0.569573971445003
630300000	-0.832052564979846	-0.498621096487812
631600000	-0.871250583752378	-0.425027846488833
632900000	-0.903790504268309	-0.347900483023993
634200000	-0.929408692182041	-0.268043594762513
635500000	-0.94712480151311	-0.186523992877205
636800000	-0.958224205331222	-0.104158382068891
638100000	-0.961744885090706	-0.0210667138724175
639400000	-0.957635623152195	0.0619639370254591
640700000	-0.946444625315533	0.1435797210827
642000000	-0.928800778169775	0.223742965429384
643300000	-0.903867298042061	0.301735143004441
644600000	-0.872430693317515	0.377045308452314
645900000	-0.834585381820981	0.44919920969129
647200000	-0.791418173425216	0.517038889802185
648500000	-0.742874462017462	0.581280990433975
649800000	-0.688946044856993	0.640465383175381
651100000	-0.631064124391898	0.694969210063774
652400000	-0.568866788157967	0.744221195570237
653700000	-0.503291481511253	0.788125012020031
655000000	-0.434935825612977	0.825973915202424
656300000	-0.363622299168945	0.858532675742962
657600000	-0.290691572860401	0.884258003959536
658900000	-0.215673761860241	0.904993179231586
660200000	-0.13986683365739	0.919159406160054
661500000	-0.0628980230654585	0.927400360863663
662800000	0.0134926180035881	0.929289638760911
664100000	0.0892497216539034	0.925326851105858
665400000	0.164429694396271	0.915648885043553
666700000	0.239139793572711	0.900089861873432
668000000	0.312083315959639	0.879081909830294
669300000	0.382433104835424	0.852065912911265
670600000	0.450987493936436	0.819589799571182
671900000	0.515934029946699	0.782297169151616
673200000	0.578405029547263	0.7400189023655
674500000	0.636887362300942	0.692659591110956
675800000	0.692099855414163	0.641255066328907
677100000	0.743154552377565	0.58543256214347
678400000	0.789210229696062	0.526073633172817
679700000	0.830657519049163	0.462254922141534
681000000	0.867001288058986	0.396219954118912
682300000	0.898032877282916	0.326996110202807
683600000	0.923510244925097	0.255571794845744
684900000	0.943619312761555	0.182030819523068
686200000	0.957097782733498	0.106995199399989
687500000	0.964456766978266	0.030979822448442
688800000	0.966111356607837	-0.0460847256871081
690100000	0.961153256954665	-0.122478772609607
691400000	0.95005311244216	-0.199025982413286
692700000	0.932318848312113	-0.274355881634621
694000000	0.908763689377327	-0.348534255241686
695300000	0.878490567083179	-0.420246685736815
696600000	0.842994085310876	-0.490011814172138
697900000	0.800728263644417	-0.55643412278609
699200000	0.753438280149636	-0.619069817889683
700500000	0.700569079320346	-0.678260652513536
701800000	0.643289674441097	-0.732684672134579
703100000	0.580553750065658	-0.782339254457339
704400000	0.513978114036879	-0.826917328734346
705700000	0.444011043472983	-0.86562084991622
707000000	0.370048350919658	-0.8979653745128
708300000	0.293370167624513	-0.924799385602086
709600000	0.215392217253454	-0.944411449881244
710900000	0.135190714051962	-0.957995607417437
712200000	0.053612118376768	-0.964951566500401
713500000	-0.0281824969278477	-0.964263957639701
714800000	-0.109368440494131	-0.956614364617256
716100000	-0.1905405621032	-0.942626236148687
717400000	-0.269825842466795	-0.921203710768779
718700000	-0.347596523136753	-0.89390206305927
720000000	-0.422952747777387	-0.859595660051407
721300000	-0.495020379312667	-0.818846172970476
722600000	-0.563096903295215	-0.772364455458388
723900000	-0.627247825295375	-0.719735042180063
725200000	-0.686641036500184	-0.661878290360734
726500000	-0.741159537035388	-0.599358731099333
727800000	-0.789961326241889	-0.532156955357307
729100000	-0.833051823861333	-0.460841477098011
730400000	-0.869859464187902	-0.386152602931913
731700000	-0.899894022940408	-0.308774382603871
733000000	-0.922872927329434	-0.229433105762159
734300000	-0.93954115832538	-0.148186799942686
735600000	-0.948730507247937	-0.0655108306458659
736900000	-0.950657286093491	0.0169240497300495
738200000	-0.94553671409379	0.0996071779781839
739500000	-0.933387592866476	0.180926775955376
740800000	-0.914249989766071	0.26081251883767
742100000	-0.888129883408478	0.33863669940642
743400000	-0.855969705749654	0.413537740176796
744700000	-0.816859971784026	0.485487998245011
746000000	-0.77187161375505	0.553416916592083
