!Agilent N9923A: A.05.17
!Date: Sunday, 01 January 2006 12:46:50
!Model: N9923A
!Serial: MY50371189
!CHECKSUM:1742884643
!Correction: S11(ON U)
!S1P File: Measurement: S11:
# Hz S RI R 50
100000000	0.0917053700315911	0.355480310682704
100350000	0.1608134215724	0.328090095494158
100700000	0.222288509298466	0.287041331345476
101050000	0.273429092950986	0.233947032219179
101400000	0.312419211775508	0.171451048680397
101750000	0.337268615383795	0.102146554131496
102100000	0.346640082822013	0.0290703802171972
102450000	0.340276531394512	-0.044393346385851
102800000	0.318189651276559	-0.114817592287179
103150000	0.281454629927184	-0.178565533739485
103500000	0.231394576060883	-0.232809550604631
103850000	0.17101693415276	-0.274734068730228
104200000	0.102687542823992	-0.30226985057944
104550000	0.030639413517399	-0.314125511001818
104900000	-0.0423745385669911	-0.309665517936009
105250000	-0.112239004472924	-0.289303456824568
105600000	-0.175723380769926	-0.254310922080528
105950000	-0.229599963350403	-0.20644756731868
106300000	-0.27201103189877	-0.147760925767312
106650000	-0.30027605406502	-0.0829824208626359
107000000	-0.312793955400185	-0.0136269352981203
107350000	-0.311070000632343	0.0567769786145383
107700000	-0.294458970382183	0.124777437700498
108050000	-0.263923320415247	0.187503813920722
108400000	-0.220816462767172	0.241746672304373
108750000	-0.167606635210046	0.285768334668636
109100000	-0.10647461600853	0.317588639996961
109450000	-0.040553307209808	0.335811646813395
109800000	0.0276401699233214	0.340408163185624
110150000	0.0952927449562354	0.330418282066058
110500000	0.159517772790926	0.306461339696923
110850000	0.217470276804769	0.269810786491455
111200000	0.266517434496635	0.221853749602725
111550000	0.304603976274388	0.164696005483252
111900000	0.330246363396152	0.101016723246096
112250000	0.341928613336351	0.0330087713016785
112600000	0.339173848701735	-0.03608336109455
112950000	0.322036400850791	-0.103306466156975
113300000	0.29100512090891	-0.165522272152898
113650000	0.247637588348029	-0.219835001055934
114000000	0.193801963683963	-0.263776992764283
114350000	0.131932867750868	-0.29549221937752
114700000	0.0648038148998551	-0.313400489368778
115050000	-0.00418792184777109	-0.316670586589276
115400000	-0.0720629392999579	-0.305540486408319
115750000	-0.136042147418611	-0.280349241833131
116100000	-0.192969476225632	-0.242447136748951
116450000	-0.240519243336012	-0.193843679346863
116800000	-0.276511244504156	-0.136770926559747
117150000	-0.299563585222508	-0.0737525543069201
117500000	-0.309001834546856	-0.00798078500879046
117850000	-0.30454174620909	0.0579312231953051
118200000	-0.286643262586245	0.120836215675997
118550000	-0.256349948991753	0.178340089134333
118900000	-0.214992502888961	0.227871761654
119250000	-0.164848590521654	0.267492929604799
119600000	-0.107894678150219	0.295619675120871
119950000	-0.0464217408462311	0.311610892908669
120300000	0.0161722429288695	0.314318791609329
120650000	0.0778936022069529	0.304120460470125
121000000	0.135798435762959	0.281570450844698
121350000	0.1876904833225	0.246988644283502
121700000	0.231337828142451	0.202458616468179
122050000	0.264380037352541	0.149953298250642
122400000	0.285421957466966	0.091576526950322
122750000	0.293526755242217	0.0300075645260321
123100000	0.288365078895467	-0.0317044170872211
123450000	0.270114551142022	-0.0912366579450995
123800000	0.23937702899659	-0.145265974807898
124150000	0.19728409244945	-0.191524211396331
124500000	0.146646998503319	-0.227244377014018
124850000	0.0892877417053485	-0.251140133776473
125200000	0.0281480452194603	-0.261977806351264
125550000	-0.0335396580635136	-0.259294724217317
125900000	-0.0931534095336768	-0.243191402721751
126250000	-0.147526422252934	-0.215063753303929
126600000	-0.19416966148478	-0.175708113594191
126950000	-0.231364202817988	-0.127378759069359
127300000	-0.257259429932013	-0.0730041450167968
127650000	-0.270845430877656	-0.0142835608966129
128000000	-0.272095277219049	0.0452514408915191
128350000	-0.260609271747335	0.103583100024596
128700000	-0.23749571658626	0.157858080168897
129050000	-0.203680552177072	0.205804582679914
129400000	-0.161117302433537	0.245519489353048
129750000	-0.111393518201126	0.275689684708952
130100000	-0.0568198454084812	0.294848175063609
130450000	0.000311757248986751	0.302468793068756
130800000	0.0576231762608835	0.298280434266807
131150000	0.112723093757657	0.282278716034853
131500000	0.163290860584388	0.25555946194408
131850000	0.207265587539997	0.219535980264637
132200000	0.242927093888388	0.174676531430698
132550000	0.268590310400259	0.123779795994827
132900000	0.283108468663947	0.0684385176440997
133250000	0.285945515802807	0.0114635473372622
133600000	0.276525851461966	-0.0449420927271272
133950000	0.255587763205232	-0.0983232828336681
134300000	0.223748667656645	-0.145562649007357
134650000	0.182761323883822	-0.185164805034282
135000000	0.134258586715565	-0.215334654245059
135350000	0.0805190549365267	-0.234197112923826
135700000	0.0241959492257929	-0.241210378623322
136050000	-0.0322496440895072	-0.236102525029848
136400000	-0.0855350612600365	-0.218926061272624
136750000	-0.134064251741224	-0.190741961234547
137100000	-0.174984126470294	-0.153069651598918
137450000	-0.206832048837348	-0.108160116381631
137800000	-0.228183891534922	-0.0576307036251505
138150000	-0.238322531084249	-0.00421082165901482
138500000	-0.236582144017545	0.0496993561678105
138850000	-0.223966126662985	0.101443330490255
139200000	-0.200898532145409	0.149279886969746
139550000	-0.168289810743766	0.190604397969105
139900000	-0.128347000735518	0.224163300867588
140250000	-0.0824190799961365	0.248186566890161
140600000	-0.0327729835953591	0.26242013035527
140950000	0.0184920388665602	0.265717180372435
141300000	0.0688019626556152	0.258434889937932
141650000	0.116627264826395	0.240663146161754
142000000	0.159854942028416	0.213699858361234
142350000	0.19610182660588	0.178268778868895
142700000	0.224150409996001	0.136024518290744
143050000	0.242722699907477	0.0888425805776114
143400000	0.250809076179761	0.0388835457159293
143750000	0.248055176595061	-0.0120162334698253
144100000	0.234596771618441	-0.0609047185726721
144450000	0.211002814131296	-0.105996615878112
144800000	0.178216969245562	-0.145065591905359
145150000	0.137708540206242	-0.176007867405957
145500000	0.0915494286991348	-0.197626979796501
145850000	0.0417120804499763	-0.208760939449744
146200000	-0.00899839549310618	-0.208888958736023
146550000	-0.0587881735733064	-0.19789054022717
146900000	-0.104668301113548	-0.176678444140759
147250000	-0.144790180237749	-0.146111951881465
147600000	-0.177291669979234	-0.107826094492875
147950000	-0.20103738942069	-0.0636567862520126
148300000	-0.214300980804136	-0.0157590223542967
148650000	-0.217426408097925	0.033609818372077
149000000	-0.210146117185987	0.0823742139037807
149350000	-0.192723219021347	0.128131058933748
149700000	-0.166469586587694	0.169216139080983
150050000	-0.132315260695138	0.203670321305301
150400000	-0.0920800194905776	0.229895269870911
150750000	-0.0471175661323653	0.247352089377462
151100000	-0.000165070632921983	0.255307584112811
151450000	0.0473508834381965	0.253425903916589
151800000	0.0935435237844315	0.241723803430397
152150000	0.136342220699494	0.22087315633985
152500000	0.17395994006745	0.191879051013223
152850000	0.204677833091045	0.155862625575068
153200000	0.227187294444592	0.113999478294167
153550000	0.241298178902169	0.0685150867695958
153900000	0.244903346327941	0.0206488314882477
154250000	0.23896799601433	-0.026660827121523
154600000	0.22309600887713	-0.0718481017013128
154950000	0.197980168144245	-0.113046255913551
155300000	0.164757830545517	-0.148030738498001
155650000	0.124428893124562	-0.175186938044703
156000000	0.0794605713636622	-0.192746045719669
156350000	0.0318745909094204	-0.200439034587838
156700000	-0.0161201474749183	-0.197757014878917
157050000	-0.0621106502865976	-0.184961439469664
157400000	-0.10394351659394	-0.162660240922627
157750000	-0.139983043782428	-0.132397923846498
158100000	-0.168993098876584	-0.0954299304293597
158450000	-0.189006139698228	-0.0536431018959679
158800000	-0.199738214830429	-0.00871077017859172
159150000	-0.201044645300928	0.0373312999367756
159500000	-0.192508594951807	0.0819609291601559
159850000	-0.175019722683963	0.123774091184535
160200000	-0.149559135567	0.160674595647847
160550000	-0.116955110419796	0.191120668951696
160900000	-0.0789183412684313	0.214250676146046
161250000	-0.0372050944753772	0.228823582053905
161600000	0.00642608288682532	0.234352209363889
161950000	0.050230124120034	0.230610443381527
162300000	0.0919657578141454	0.21794924065057
162650000	0.130169256370491	0.196771281083676
163000000	0.163300997340722	0.168322930649896
163350000	0.189381072690379	0.133559103899639
163700000	0.207838801013279	0.0940296236937553
164050000	0.217440029649628	0.0513434579759249
164400000	0.217649355159077	0.00765927725861595
164750000	0.208815732207789	-0.0350991163214381
165100000	0.190859915731873	-0.0752349590003853
165450000	0.164852813377364	-0.110626435530061
165800000	0.131654408788737	-0.139595464412704
166150000	0.0930092109589529	-0.160887651572078
166500000	0.0506560010122385	-0.173398063029746
166850000	0.00651387939502557	-0.17649641247576
167200000	-0.0371540393387468	-0.169969371749785
167550000	-0.0787936744170288	-0.154254014804543
167900000	-0.115546909026691	-0.129973619346393
168250000	-0.146389603737912	-0.0986499434372649
168600000	-0.169693891048782	-0.0611008577442858
168950000	-0.18472017438425	-0.0200046185626183
169300000	-0.190328950788462	0.0232238079544907
169650000	-0.187070654050356	0.0665942847062889
170000000	-0.174605926971253	0.108152255570862
170350000	-0.154029972092431	0.146058063209985
170700000	-0.12618068139537	0.178800760064698
171050000	-0.0925061160386249	0.205144105244928
171400000	-0.0539124496924862	0.223938809087085
171750000	-0.0126334249761111	0.234138173494638
172100000	0.0299125673265209	0.236014359340649
172450000	0.0719132453240541	0.229115921975188
172800000	0.111395332577336	0.213758766385355
173150000	0.147441605201078	0.190710918959282
173500000	0.177728788756989	0.161049246865242
173850000	0.201178132751582	0.1255459953707
174200000	0.217336871829873	0.0860027026814551
174550000	0.2247978575887	0.0440154033719114
174900000	0.223424326580737	0.00152944084980117
175250000	0.213032001200542	-0.0402710354967086
175600000	0.194778216034564	-0.0787769396247415
175950000	0.168458479440653	-0.112461024540421
176300000	0.136034980182753	-0.140040591745197
176650000	0.0985128889468698	-0.159999885933578
177000000	0.0575247722187814	-0.171900578038946
177350000	0.0151958247225095	-0.174780317371046
177700000	-0.0263798940095919	-0.168524777075146
178050000	-0.065805585759116	-0.153732172912583
178400000	-0.100926398474481	-0.131309574886797
178750000	-0.130103760776646	-0.101982685116001
179100000	-0.152569342958691	-0.0674212170103365
179450000	-0.166969150706862	-0.029275607932624
179800000	-0.173030811582237	0.0105081882401681
180150000	-0.170525456389502	0.0506213456271818
180500000	-0.159721308461321	0.0887241728282244
180850000	-0.141554767388464	0.123472839865825
181200000	-0.116599533639549	0.153499389636383
181550000	-0.0863466140246529	0.177163734214938
181900000	-0.0521734732670723	0.194079443834201
182250000	-0.01535897336976	0.20340514907348
182600000	0.0226646929008504	0.204968702720423
182950000	0.0593173129999351	0.198255315036403
183300000	0.0938485635657053	0.184603201824322
183650000	0.124553111802659	0.163730694079759
184000000	0.150218486097256	0.137285734281625
184350000	0.169864376414323	0.106088947884989
184700000	0.18221991851025	0.0714193388443577
185050000	0.186694777624389	0.0350373366771994
185400000	0.183864888896244	-0.00100362647830708
185750000	0.173346046991648	-0.0358951732795483
186100000	0.155473861563178	-0.0679181671287375
186450000	0.131454700396451	-0.0948625667361603
186800000	0.101908404046423	-0.116082019004096
187150000	0.06868177707171	-0.130703418593044
187500000	0.0336127256271376	-0.13749736590883
187850000	-0.00232098282641387	-0.136601698406233
188200000	-0.0369417619563501	-0.127855050882415
188550000	-0.0690729916107149	-0.112002124160775
188900000	-0.0966176747138371	-0.089842334211682
189250000	-0.118648792028898	-0.0624064432291395
189600000	-0.134176998889674	-0.03104207524274
189950000	-0.142617861531111	0.00282465326452127
190300000	-0.143671793868938	0.0376356647007336
190650000	-0.137083130943688	0.0717147416610697
191000000	-0.123557177963796	0.103014391765175
191350000	-0.103856835050338	0.130765436057905
191700000	-0.0788059328218096	0.153786197685477
192050000	-0.0496298627833	0.170715866928205
192400000	-0.0177012252860928	0.181291283675702
192750000	0.015658420333745	0.184584538399918
193100000	0.0490348277000163	0.180927503490897
193450000	0.0806388936146318	0.17037413853873
193800000	0.109442152834333	0.1536138215956
194150000	0.133991840034667	0.130921379120811
194500000	0.153223276211447	0.103587803284083
194850000	0.166240803424824	0.0727813666685117
195200000	0.172509779293993	0.0398957944023905
195550000	0.171768059909999	0.00642251892448741
195900000	0.163746902200325	-0.0264214894578103
196250000	0.149003488101946	-0.0566502992249996
196600000	0.128114153649615	-0.0832463222325712
196950000	0.102020309101294	-0.104631577281888
197300000	0.0715777120304167	-0.12030275919373
197650000	0.0385891200626004	-0.128876876485379
198000000	0.00447407083172282	-0.130239149538134
198350000	-0.0291371036334487	-0.124070211021676
198700000	-0.0607094513708969	-0.110924775523391
199050000	-0.0889456555194061	-0.0914368128804255
199400000	-0.111924511957767	-0.0665600904113495
199750000	-0.129184173294198	-0.0372414590309239
200100000	-0.140056145589706	-0.00490918686446843
200450000	-0.143474880486247	0.0287772150417406
200800000	-0.140019374128859	0.0623970701102703
201150000	-0.129562743514212	0.0944221947837618
201500000	-0.112740502713792	0.123629155341375
201850000	-0.0901319799133952	0.148417715101534
202200000	-0.0631806477913577	0.168191880827406
202550000	-0.0328003388632906	0.181819404347512
202900000	-0.000263572781571554	0.189132788793646
203250000	0.0330877695255657	0.189229812941446
203600000	0.0655933197248464	0.182633293728259
203950000	0.0962378178023994	0.16970103404853
204300000	0.123450464747914	0.150549820961346
204650000	0.146201642532283	0.126564413858696
205000000	0.163505298092245	0.098252480599812
205350000	0.174897293524301	0.0668791193492601
205700000	0.179391061234057	0.0339939114273862
206050000	0.177084756804733	0.000615219684760492
206400000	0.167822014939209	-0.0316505966869606
206750000	0.152229005679712	-0.0608769977408289
207100000	0.130769866008055	-0.0866793684392265
207450000	0.104389491649619	-0.107188996937169
207800000	0.0745521422444117	-0.121574798206896
208150000	0.0420671787326922	-0.129696626757602
208500000	0.00882022702615865	-0.130834707647384
208850000	-0.0237887831759766	-0.125092089076188
209200000	-0.054490709077429	-0.112217184980934
209550000	-0.0815187470172045	-0.0936389609963689
209900000	-0.104197440983733	-0.0696115200989113
210250000	-0.120998886602044	-0.0418136498772424
210600000	-0.131472917467758	-0.0111785755949806
210950000	-0.135457226509013	0.0205122909320876
211300000	-0.132760578264099	0.0523283510545959
211650000	-0.123679538887742	0.0827750584589012
212000000	-0.108251564970388	0.110053208570407
212350000	-0.0879413772936498	0.133801801690336
212700000	-0.06343627582756	0.15247808656227
213050000	-0.0355257986683028	0.16550791486966
213400000	-0.00598476174213225	0.172274666969878
213750000	0.0242549248949288	0.173290308188038
214100000	0.0536113857012782	0.167908476487615
214450000	0.0811021085740982	0.156445936769026
214800000	0.105720580895827	0.139641230586497
215150000	0.125963706498124	0.118387376364275
215500000	0.141200913268838	0.0932169615208947
215850000	0.150954718283768	0.0656246832126153
216200000	0.154687931543326	0.0367071978883547
216550000	0.152244708288957	0.00786172063709251
216900000	0.143412164357046	-0.019892288634167
217250000	0.129195386098299	-0.0449854288822363
217600000	0.109662570463082	-0.0662641044361232
217950000	0.0861561563192741	-0.0828518306618614
218300000	0.0593323328394053	-0.0941591094175555
218650000	0.0312823394467703	-0.0990173466241178
219000000	0.00278156945728447	-0.0978910157260798
219350000	-0.0250215232942337	-0.0904801401962668
219700000	-0.0502731333704218	-0.0771084075730931
220050000	-0.0721118288810943	-0.0588128977374403
220400000	-0.0891641505146012	-0.0362747281676616
220750000	-0.100820626370247	-0.0103097295394999
221100000	-0.107086770651583	0.0173773221899563
221450000	-0.10708382338547	0.0457073711517801
221800000	-0.100919136116005	0.0735226060690768
222150000	-0.089178224334143	0.0991594414905559
222500000	-0.0722097946487359	0.121826479696066
222850000	-0.0510466548583114	0.140700693068203
223200000	-0.0263668429193391	0.154454338588983
223550000	0.000895006997556534	0.162531073045501
223900000	0.0290126740375383	0.165279935185091
224250000	0.0571658536160947	0.161860060643243
224600000	0.0840693338749906	0.153047261270585
224950000	0.108586922227036	0.138639186218613
225300000	0.129662626102921	0.119550129929798
225650000	0.146584486175554	0.0964726860879776
226000000	0.158306475699586	0.0707196450475079
226350000	0.164729294957436	0.0425787117558773
226700000	0.165091462263112	0.0137222940668682
227050000	0.15961898368207	-0.0145746091733021
227400000	0.148562210473056	-0.0410295712719738
227750000	0.13200033382666	-0.0647919488087007
228100000	0.111036685930914	-0.0847670032356291
228450000	0.0867153178742453	-0.0998649410179738
228800000	0.0593984297973252	-0.109812640364257
229150000	0.0311005464381206	-0.113316420281722
229500000	0.00237285087369539	-0.111248959238191
229850000	-0.0251742741412932	-0.10331466795274
230200000	-0.0501717289887252	-0.0897229929320713
230550000	-0.0718069933463476	-0.0715983153152604
230900000	-0.0887933919461024	-0.0492798713765434
231250000	-0.100639239829077	-0.0242534502663071
231600000	-0.107194432167127	0.00247869472750199
231950000	-0.107991358731859	0.0299350643536931
232300000	-0.103091557564605	0.0564733801764718
232650000	-0.0929192511252674	0.0811657444897259
233000000	-0.0779899806244398	0.103270150979168
233350000	-0.0591858338002677	0.121559640490414
233700000	-0.0371150405958083	0.135190752364861
234050000	-0.0126463456385978	0.143654123155263
234400000	0.0124690858099302	0.147198624680905
234750000	0.0374976793246808	0.145217487467066
235100000	0.0616525160179198	0.137904572959665
235450000	0.0831751149757873	0.126054950085155
235800000	0.10193613145424	0.109750892209495
236150000	0.116436603012856	0.0900283092016557
236500000	0.126559743294471	0.0678824964834572
236850000	0.131535236843226	0.0439747631586259
237200000	0.13144408123299	0.0198206975399825
237550000	0.125885552167252	-0.00376992120426318
237900000	0.115490617640401	-0.0253752434677973
238250000	0.100691085304525	-0.0441600019032355
238600000	0.0819634478947255	-0.0593343638478849
238950000	0.0605760909973	-0.0698861695252448
239300000	0.0374599847464391	-0.0758620996498753
239650000	0.0131934232460857	-0.0762459251140736
240000000	-0.010473397005971	-0.0713090237725139
240350000	-0.0324562641522655	-0.0612769291086789
240700000	-0.0516693983996521	-0.0469205837672489
241050000	-0.0673221186821896	-0.0283918811738652
241400000	-0.0786264929404945	-0.00678236838130137
241750000	-0.0850156033539245	0.0164069838264258
242100000	-0.0860649331799139	0.0407094607340937
242450000	-0.0822166581099868	0.0644960421813203
242800000	-0.0731382752436212	0.0871937083746589
243150000	-0.0598330052347322	0.107474125207159
243500000	-0.0419306881513506	0.124393801759463
243850000	-0.0212664069777217	0.137438146501186
244200000	0.0016185807797142	0.145757565415881
244550000	0.0261218158673581	0.149170840492185
244900000	0.0506241807047628	0.147618893870423
245250000	0.0745001707656258	0.140856405440907
