!Agilent N9923A: A.05.17
!Date: Sunday, 01 January 2006 13:26:01
!Model: N9923A
!Serial: MY50371189
!CHECKSUM:0721150045
!Correction: S11(ON U)S21(OFF)S12(OFF)S22(OFF)
!S2P File: Measurements:S11,S21,S12,S22:
# Hz S DB R 50
1000000000	-15.5261365409089	8.46049057457997	-6.41292580268036	-45.2517060879527	-6.40879455716381	-45.1596243992888	-19.1993784628144	-1.71227618088405	
1002000000	-14.0566352279347	1.91294106980939	-6.49486315845876	-79.664811896936	-6.48786440299729	-79.6094073204991	-15.5936126987973	-12.452186464623	
1004000000	-13.9277973474985	-10.6520119872882	-6.51592618690983	-113.804136698798	-6.51160496386303	-113.707902849329	-14.6176930243017	-30.8044663296428	
1006000000	-15.4581279345082	-21.5090040144619	-6.47270344438754	-148.013032304433	-6.45917838655976	-147.94389072032	-15.7913804484804	-46.5701751616934	
1008000000	-18.3938063363864	-18.4116922311502	-6.4041372287193	177.225941728195	-6.3960897163845	177.285586624327	-18.6156321037593	-47.6622777198449	
1010000000	-18.7004906536553	4.44541647388034	-6.40270285026012	142.155691778191	-6.39788642345755	142.256503606975	-19.0159163642863	-27.8540078202697	
1012000000	-16.0438629039415	9.62472758313877	-6.46589523740404	107.344868150299	-6.46103788303379	107.39973431157	-16.3175816100885	-25.4093571717373	
1014000000	-14.7106528118447	-0.0715117520030868	-6.51217105754713	72.9935830006848	-6.51146878298074	73.050261175337	-15.0804536292141	-39.0746141062481	
1016000000	-15.1469114256843	-10.528211941522	-6.5031532102981	38.704624363594	-6.49853393790271	38.7878692766219	-16.0417615782548	-54.7717850216421	
1018000000	-16.7963756954447	-12.0229677792438	-6.46027459529662	4.04269890113675	-6.45909171495971	4.11482050513735	-19.4183915447371	-59.2377939435053	
1020000000	-17.2495645138239	-0.405739246515535	-6.46004842559295	-30.925937375384	-6.45350274817635	-30.8552553037619	-21.258643253065	-29.7033788840056	
1022000000	-15.5462552706751	3.65565941994192	-6.51838490466911	-65.743600115983	-6.51462807947965	-65.6661360290494	-17.3058456304431	-18.3253455396546	
1024000000	-14.3815042367864	-4.8180175186137	-6.57872527382556	-100.11563909407	-6.57270722599412	-100.056093810244	-15.0748318751771	-31.026162489432	
1026000000	-14.815009953658	-16.2367833081264	-6.57456725419723	-134.357677937103	-6.56931793809934	-134.276642588123	-15.1793624450857	-47.1369064857359	
1028000000	-16.8040263671952	-20.3336327132686	-6.5250489907964	-168.88469146278	-6.51877079320584	-168.806125263884	-17.4202453688194	-55.5568092257584	
1030000000	-18.1895409086246	-6.02665830861199	-6.50821082084313	156.107241123774	-6.49992964796622	156.179937548098	-19.6318281477662	-39.1916354320153	
1032000000	-16.1847628223384	4.63804674625184	-6.5709462432727	121.151304821682	-6.5653329132166	121.250165693493	-16.959922418153	-23.7229945930991	
1034000000	-14.2529406007038	-2.69091088575162	-6.65213854493166	86.7369113182258	-6.6530255975275	86.8037067438823	-14.4597302776192	-32.7832470454083	
1036000000	-13.9964768972614	-16.0734257195718	-6.67703759777398	52.6958605326421	-6.67170569726986	52.7732779733404	-13.9672186465285	-48.8693798763091	
1038000000	-15.4358062240375	-26.641812666107	-6.62441844600123	18.4502444310018	-6.61946078347326	18.5256343768715	-15.5036647153741	-62.407877307992	
1040000000	-17.8013323073757	-23.0161983253939	-6.56438610966822	-16.3622584927524	-6.5565876913564	-16.2636217287744	-18.6139186708126	-59.4309842408723	
1042000000	-17.5689987516612	-6.90854325145895	-6.57326455643303	-51.3706955268129	-6.56949877593287	-51.301948224843	-18.447329748217	-35.6457800273009	
1044000000	-15.5037803456472	-7.18140226570284	-6.64326501702527	-86.0928804969555	-6.63636316335882	-86.0235106718285	-15.4971158471725	-33.8342088603	
1046000000	-14.7954864605752	-19.1401686097835	-6.6875282409171	-120.335387130067	-6.67722662234442	-120.228087033336	-14.1918527687568	-46.3413769895019	
1048000000	-16.0307987093857	-31.8692002891525	-6.65125058050604	-154.557983768815	-6.6493312639245	-154.475200956076	-14.8073828583754	-59.429451299795	
1050000000	-19.1600231136899	-32.335349788937	-6.59420984184389	170.73824426352	-6.58893814607357	170.842511108491	-16.9241201275178	-62.4930093090375	
1052000000	-20.2106716872369	-6.57498034576836	-6.58510994984779	135.753028738225	-6.58103653689658	135.830740925675	-17.8197358508126	-48.3417416191189	
1054000000	-17.164585846004	1.60158103064489	-6.63858326396874	100.897454024935	-6.63531734831484	100.990703050989	-15.9118924371162	-42.4891826650976	
1056000000	-15.5340321783029	-8.93578445670599	-6.68485881200369	66.5447213332962	-6.68010570918787	66.554386991145	-14.6634690702473	-51.5061610035511	
1058000000	-16.0054584920238	-21.7352851887592	-6.6710744700988	32.2291996613218	-6.66314590456779	32.2849242663911	-15.2660362682581	-63.6532307989153	
1060000000	-18.2215889567269	-25.1857725291775	-6.62309461914952	-2.40816154223283	-6.61746025032897	-2.35909577870318	-17.6957684955912	-66.9586203611049	
1062000000	-19.3950517765146	-8.18735171866397	-6.6169307080582	-37.4276219027875	-6.60937577549331	-37.3293840899085	-19.1871966674505	-47.7719625295309	
1064000000	-17.1692255857524	0.643489556701554	-6.66705625112337	-72.2833615587026	-6.65689702196641	-72.2138581334474	-16.6973837673038	-36.2067962442608	
1066000000	-15.57699504221	-7.56251736298739	-6.71978594373841	-106.751873859343	-6.71491002837713	-106.677774451996	-14.9081887990686	-44.1891753831901	
1068000000	-15.8853555812822	-19.1844945106748	-6.7163357763404	-141.083620151992	-6.71252162405766	-141.009981948512	-15.1144558972029	-56.0132180410537	
1070000000	-17.8466669502862	-21.980480115588	-6.67788789425342	-175.724457657719	-6.67665171923679	-175.649623015041	-17.171391719415	-58.9758522527807	
1072000000	-18.6671962883057	-6.03239476297528	-6.68325667423762	149.251445953692	-6.68457553039368	149.325611309661	-18.2321825773163	-40.4842062405888	
1074000000	-16.2071480026265	1.32353479648602	-6.76358702230015	114.408136686272	-6.76462953480177	114.469407745515	-15.5053046825008	-29.9904086854082	
1076000000	-14.3544917222842	-8.93931991024645	-6.85331861078785	80.1188214761596	-6.85114737657338	80.1806888502179	-13.3320176693328	-38.481498764885	
1078000000	-14.277670320434	-24.5097376355117	-6.87188786480243	46.1639676287445	-6.86812404687499	46.2318684421335	-12.9115079091899	-52.0453932376133	
1080000000	-16.1218711335218	-37.1630019258197	-6.81200170206147	11.9453444850623	-6.80304975774909	12.015715307705	-14.1195387613257	-62.4072132592495	
1082000000	-19.4440083186847	-33.147637922245	-6.73925987043466	-22.8587012856971	-6.73903572495251	-22.7330931660866	-16.1698062407158	-59.6880611379911	
1084000000	-19.3606766865968	-9.37354743490166	-6.74261277955484	-57.8719242790476	-6.73878471901854	-57.7352429667987	-16.077451916235	-45.6687018395148	
1086000000	-16.7898295849931	-8.39872843507702	-6.79797358355812	-92.5706016167491	-6.80089188380165	-92.4763368459366	-14.2725831972187	-44.1907096975034	
1088000000	-16.0310452083572	-21.2211230967377	-6.82873752629916	-126.912456018514	-6.82491205200985	-126.795015933798	-13.487229951705	-52.7435864383944	
1090000000	-17.6556956288904	-33.3401314319392	-6.79804245326692	-161.291032564042	-6.79098977347239	-161.192830140695	-14.2005230767396	-60.7059434958101	
1092000000	-21.2962852466868	-26.462849936619	-6.76633139974549	163.920244908156	-6.75708718410597	164.01135776242	-15.6574665552346	-58.9102829084069	
1094000000	-20.4691102945446	5.22156536897971	-6.78505288747579	128.942888727403	-6.77649776140383	129.040250619102	-15.5064664483931	-48.5965659945555	
1096000000	-16.8301108193745	5.77753186120863	-6.85211290518093	94.2998376680062	-6.84644782672826	94.3769970597762	-13.938335757449	-48.1969121835229	
1098000000	-15.4262893230839	-8.29261244702647	-6.8937105413367	60.0444008497777	-6.88259727265166	60.1228436885448	-13.2354183900851	-57.4073932139891	
1100000000	-16.2140926628909	-22.0849991312081	-6.86731359214766	25.7915035070436	-6.85879056370657	25.9040152092057	-14.0724452039694	-67.513635875014	
1102000000	-18.7515000977286	-24.5037312192275	-6.8078906715755	-8.86862180333919	-6.79844779324658	-8.76323481869003	-16.2169073125431	-68.7749027510158	
1104000000	-19.7599066516644	-5.24378669661912	-6.79476609574662	-43.8463994350808	-6.79218709751912	-43.7327822981767	-17.2857485017879	-53.4626331372301	
1106000000	-17.3083878058965	2.33200643484006	-6.83738908896686	-78.6841844545964	-6.83643937298383	-78.5960220408921	-15.5347734578094	-45.1022330116417	
1108000000	-15.8650027747161	-6.93729112700021	-6.88777005501441	-113.168456740783	-6.87849088319101	-113.080500848806	-14.271841230025	-51.3410246335593	
1110000000	-16.4183413130657	-18.2575948487429	-6.87929464441314	-147.5531135354	-6.86903697295988	-147.46373675845	-14.6894516582333	-60.337811055653	
1112000000	-18.5543347795759	-18.6386072450518	-6.84557824933603	177.746338586745	-6.84163853090273	177.848864532761	-16.4545188366607	-60.1673493386696	
1114000000	-18.9695689762209	-0.467449806611212	-6.86002503880766	142.770034258539	-6.8538584001413	142.869113504661	-16.831777475196	-45.0424384080996	
1116000000	-16.3181777359041	4.6553395461453	-6.93897637955794	108.003146503807	-6.92940818956574	108.105721283247	-14.6326229288095	-39.1714660027786	
1118000000	-14.6633878931692	-6.27202627466985	-7.01276314622208	73.7344895273701	-6.99917185056505	73.8357192376866	-13.0426689863541	-47.7900335891624	
1120000000	-14.8609918891405	-21.4210865620147	-7.01571724443821	39.7085063616936	-7.00479296142804	39.789024673038	-13.0053616430552	-60.4215406725658	
1122000000	-17.0255308594718	-31.9282236096185	-6.94801727326647	5.39108625096513	-6.93728013351984	5.49510441683222	-14.4447035300304	-69.1835591299267	
1124000000	-20.3058023003219	-22.1137840059414	-6.89189013967206	-29.4331581585925	-6.88278022705972	-29.343623190072	-16.3900348947141	-65.3128854522443	
1126000000	-19.2970192332044	2.40863703665833	-6.89671425933617	-64.4462496365599	-6.88748069697527	-64.31595138725	-16.2219303131324	-53.9579976592125	
1128000000	-16.673559758567	2.26219860163857	-6.94127716086822	-99.1459046579713	-6.93243023146666	-99.0327670158779	-14.953056299812	-55.3058280340424	
1130000000	-15.913281034883	-7.89639782384675	-6.95834240529822	-133.594083787979	-6.94293279196302	-133.516186730623	-14.9687508731742	-64.9325865982947	
1132000000	-16.8604892552617	-14.2075820937556	-6.93137607811722	-168.106398061382	-6.92585215386295	-168.014241972597	-16.9107796173295	-71.562550347595	
1134000000	-17.8751089943023	-7.76185647221735	-6.91825869646209	156.993660527467	-6.90718264620166	157.09243654547	-19.5475548950409	-57.5360181441721	
1136000000	-16.6760404428361	0.69537877019316	-6.96185432155083	122.095946734766	-6.94986595010112	122.194593653711	-17.6989694645057	-35.5891551961143	
1138000000	-15.0040962718834	-4.32799578639989	-7.0292292816679	87.5689157775876	-7.02283952621628	87.6832626003041	-14.8970939175399	-38.7423482344439	
1140000000	-14.618741637845	-16.5793867760174	-7.06580542987127	53.3900901847533	-7.06171795520785	53.5135702394232	-13.9618796886506	-51.8588380055339	
1142000000	-15.9073764746623	-27.7697570414217	-7.03223266457106	19.1220528472808	-7.01933978995766	19.2504735326721	-14.8635987998381	-64.070760259626	
1144000000	-18.5756971644183	-26.9425751484784	-6.97472743699891	-15.5323571979072	-6.96620392188037	-15.4225780834083	-17.0827665962797	-65.4833342572684	
1146000000	-19.3491337254568	-7.2409280830405	-6.95954943398177	-50.5011263135487	-6.95851395654038	-50.4000752667465	-17.8468042511971	-51.3979413965679	
1148000000	-17.1116914176501	0.0904682208811171	-6.99943460366568	-85.3130105748941	-6.99389394242236	-85.1937440074039	-16.1797253553069	-46.8936449918292	
1150000000	-15.8446617297939	-7.32145070026686	-7.03802150951622	-119.827329073709	-7.02897294791428	-119.750784050138	-15.3604869832324	-55.9733103643402	
1152000000	-16.2272562153627	-15.3943565232408	-7.02695855613672	-154.269040300726	-7.01408674445644	-154.161760203989	-16.5387026848553	-66.4524006029325	
1154000000	-17.4853900626041	-14.5072456418263	-7.00675885860775	170.971461555704	-6.99560559553983	171.098813298467	-19.5721648722109	-62.9954065087202	
1156000000	-17.3217930842691	-4.73180522197446	-7.02333471208748	136.030474282009	-7.01057959773271	136.163134761166	-19.7503446258753	-35.3323372131537	
1158000000	-15.7080866019139	-4.11831277800188	-7.07873221589774	101.284712454848	-7.07447769845557	101.43352119864	-16.3454179935856	-29.7475745365287	
1160000000	-14.9008759201425	-13.4678729626609	-7.1267890281736	66.9087638272189	-7.11938296380396	67.065240621389	-14.6014147018729	-41.1735187020269	
1162000000	-15.6373993113773	-23.6970993463952	-7.12386235550233	32.6196655706208	-7.11002740293964	32.760161785363	-14.8994547776055	-53.7556548686251	
1164000000	-17.7462317685542	-24.3149325117678	-7.07668479512055	-2.04392364332988	-7.07246796274164	-1.89345389641774	-16.7648427594909	-57.2298958770643	
1166000000	-18.4628420465336	-7.28362614598608	-7.08494553788909	-37.0482997066549	-7.07383008587711	-36.9203163084432	-17.5799842566032	-42.9265841522006	
1168000000	-16.1011599345836	-0.206983318860977	-7.15047291193363	-71.9006606127824	-7.14161352534565	-71.788518072686	-15.3540585652386	-35.8352161293571	
1170000000	-14.3748701679467	-9.09101111358878	-7.24455773838221	-106.230846581417	-7.23001061780278	-106.13923428692	-13.6169045546825	-44.8887737628244	
1172000000	-14.3275273930394	-22.1998182832834	-7.24881164728816	-140.342349764269	-7.23705472252682	-140.183891676411	-13.5412350837562	-58.5246787380613	
1174000000	-15.8997084525218	-30.5813290909967	-7.19910357439961	-174.716008640639	-7.18754354304176	-174.555723345276	-15.1751983017668	-67.6624842347941	
1176000000	-17.9108666502418	-23.5120663164342	-7.14988049336859	150.410299100397	-7.14383648809158	150.558464010113	-17.3523678877259	-60.085338542049	
1178000000	-16.9577146112289	-9.71311177472208	-7.18551439805217	115.354787330911	-7.17457011170381	115.528291261658	-16.2550525140045	-43.9307831537754	
1180000000	-14.9299212381004	-13.0620463268426	-7.26711335642741	80.7442455531222	-7.26081919075566	80.8948645571106	-13.910042327376	-46.4900204847549	
1182000000	-14.3690751182189	-26.0783937246794	-7.31453200039485	46.6497902274705	-7.30802066879172	46.7784808681626	-12.9506020649561	-58.7408844167809	
1184000000	-15.669192135666	-39.3192979358383	-7.28213255283728	12.4879037155519	-7.27671115784321	12.6850686587381	-13.5318332284581	-70.9323138190394	
1186000000	-18.9468678080604	-40.8064755578537	-7.21255175855746	-22.0916131860752	-7.20147017531814	-21.9359076964251	-15.1661520750529	-75.1047731758232	
1188000000	-20.5608828061011	-14.0560375126007	-7.19233116012315	-57.0786248840511	-7.18118062404103	-56.9071113547779	-15.9747457158483	-67.946838528551	
1190000000	-17.4367611856685	-1.79452709555687	-7.23309312446952	-91.9043720405847	-7.21706926985611	-91.7599823555666	-14.9440898517167	-65.4273429400803	
1192000000	-15.5205104499999	-9.94722048960825	-7.2753150090929	-126.4258008967	-7.26572437999469	-126.246320004598	-14.3256225005406	-73.875382488571	
1194000000	-15.5483033108886	-20.1146481894715	-7.26449540388566	-160.798035147766	-7.25565233262951	-160.637626853291	-15.3338283730781	-85.0594054316499	
1196000000	-16.7510412639401	-22.0276382867503	-7.23023923956473	164.468625296947	-7.22062313996594	164.686886946196	-18.230777437098	-86.2555422855263	
1198000000	-16.9350095291889	-12.6794219661218	-7.23393128735569	129.474623687473	-7.22705688159892	129.64855367771	-19.5383329942527	-60.8021824930563	
1200000000	-15.2406938761063	-9.93953229883037	-7.31259220408673	94.6107931476513	-7.29653495358726	94.7775666601704	-16.2535323370609	-50.0909617391571	
1202000000	-14.0275961491064	-18.5232401919825	-7.37939930258461	60.3400488075513	-7.36852973506395	60.4900992008372	-14.1449877365683	-60.3742101380964	
1204000000	-14.2580600224184	-30.1430631333273	-7.38167432085692	26.2167421821704	-7.37135427915356	26.3657122373416	-14.0553497665904	-74.5824144032189	
1206000000	-15.9740233286768	-36.2732036026851	-7.32248631875855	-8.25131977463593	-7.31098262931856	-8.06461974021351	-15.8090151962292	-82.984722056738	
1208000000	-17.6226012074196	-26.4219974015184	-7.28682260334952	-43.2068756648913	-7.27643757676339	-43.0332029793625	-17.8119805154278	-72.5311921862101	
1210000000	-16.2553184346426	-14.4937188817237	-7.33917867802167	-78.2165319099774	-7.32487549304219	-78.0372826694797	-16.1826372502278	-57.6518323993069	
1212000000	-14.3434414012954	-19.2387126841589	-7.42515110087188	-112.703799967	-7.41440356576486	-112.532885230108	-13.8893972957204	-62.5408670641903	
1214000000	-13.9042426540918	-31.6107688075819	-7.46149574256595	-146.765265330066	-7.45223470451836	-146.579966726932	-13.1956934448406	-75.7479297233703	
1216000000	-15.1803340949715	-42.4830683315116	-7.40956550541053	179.072024381178	-7.40567867830903	179.235507388795	-14.199018175346	-87.52876021188	
1218000000	-17.6953025750746	-40.8675223013029	-7.3441696120224	144.360114661309	-7.33254621441404	144.526795795398	-16.361426509949	-87.8919983455576	
1220000000	-18.0502550501283	-22.4891791490159	-7.33871828041952	109.311846367726	-7.32363426317704	109.479107326062	-16.7863171718431	-73.3736719566888	
1222000000	-15.8084562571113	-18.5460549110987	-7.39643659367545	74.5135589692292	-7.39122929605387	74.6870414694138	-14.8572667723368	-69.9524719458673	
1224000000	-14.6964308389002	-28.2683214969223	-7.44828606867606	40.1882120455644	-7.4352354172104	40.3377289674152	-13.7937595084149	-79.2853221841342	
1226000000	-15.4038645244981	-39.6626362302539	-7.43111452283523	5.92910937077782	-7.41493513200646	6.10224723600649	-14.3469269237028	-90.3900020361441	
1228000000	-17.7515956633136	-41.5748223042627	-7.37114311145954	-28.700744974423	-7.35783167272266	-28.5249219121892	-16.2662952758072	-93.2115677090281	
1230000000	-18.922329716996	-23.1940317080849	-7.35494132026238	-63.7032138573304	-7.34487329720364	-63.517203253364	-17.2368596420774	-80.8011424226074	
1232000000	-16.6170619937323	-12.8873503138114	-7.40814407018456	-98.5921273949572	-7.39351850760559	-98.4090809416441	-15.6137550684932	-74.4620582940711	
1234000000	-14.9015530003187	-19.4656689212688	-7.46170360294043	-133.065899843542	-7.45113142587619	-132.894173620992	-14.4345625961438	-82.3081297887033	
1236000000	-14.8366648601849	-29.236693803518	-7.46275726251291	-167.35014309229	-7.45741953332914	-167.218326574532	-15.0492135295207	-94.0640389338293	
1238000000	-15.944699365885	-32.7839163510934	-7.4268583598844	158.019195931767	-7.41567547386757	158.225670330874	-17.6133037210704	-97.3658974993865	
1240000000	-16.4452434130432	-25.3007763801897	-7.42780552073909	123.099543219098	-7.41198654205147	123.273458045688	-19.3824824888744	-75.3306385851712	
1242000000	-15.1384639427371	-21.4219402948772	-7.48295430996388	88.2538564782504	-7.470990733804	88.4404847162955	-16.458110812252	-60.8317186514378	
1244000000	-14.0037433115381	-28.6861308341463	-7.55707838812883	53.889848087544	-7.53641136858824	54.0794218166577	-14.1545488223614	-68.6505537561076	
1246000000	-14.2269937453592	-39.7647337574063	-7.56469994070315	19.7382912778605	-7.54431339672406	19.9609432225726	-13.7973496481656	-81.538291316168	
1248000000	-15.9643244048709	-46.2808769152355	-7.5063323140425	-14.6615536353852	-7.49476305061983	-14.46840750276	-15.1674931445751	-89.8436796738124	
1250000000	-17.9272304121168	-36.4916715904513	-7.46446930548538	-49.591275709561	-7.45326450651954	-49.374360209073	-16.9315655779864	-82.8954471374284	
1252000000	-16.7421360975327	-21.6617106325862	-7.50154247264054	-84.5300547356994	-7.49107279541865	-84.3170293617998	-15.940424428524	-70.3674740959013	
1254000000	-14.7405810517691	-24.4552468264442	-7.57710827084795	-119.123738678795	-7.56392517162537	-118.929397377975	-14.1074310043591	-73.386105556887	
