!Agilent N9923A: A.05.17
!Date: Sunday, 01 January 2006 13:13:32
!Model: N9923A
!Serial: MY50371189
!CHECKSUM:1636040764
!Correction: S11(ON U)S21(OFF)S12(OFF)S22(OFF)
!S2P File: Measurements:S11,S21,S12,S22:
# Hz S DB R 50
1000000000	-23.9163248278255	25.179200226494	-0.290111333387854	-51.8147145390661	-0.287700829211938	-51.7565003648591	-25.9805490686114	50.1373280306085	
1002000000	-23.519777055072	20.5727331444706	-0.293868255657187	-55.4961628628151	-0.287416068816514	-55.4828781985257	-25.7775324057853	46.907457655338	
1004000000	-23.1668073342021	16.6417986449619	-0.291979601456113	-59.2227330561373	-0.28748696411366	-59.1651592738576	-25.6186973463587	43.8199386262263	
1006000000	-22.9020361471115	12.0074437663557	-0.295554217459662	-62.8998240178561	-0.29000146934116	-62.88050313018	-25.3871167369436	40.889931535691	
1008000000	-22.6635939375849	8.30024563204785	-0.29496185888866	-66.5994962740201	-0.289782962773829	-66.5492858251241	-25.2663943403852	37.7756203886662	
1010000000	-22.3909866441194	3.78640487659183	-0.294602384251129	-70.2954786819645	-0.291578588267636	-70.2336570673917	-25.1534336807138	34.8710752546254	
1012000000	-22.2200603740017	-0.2451756748329	-0.296622236467041	-74.011876224794	-0.296409911701557	-73.9259798270251	-25.0845980959615	32.0336694789433	
1014000000	-22.0529567888704	-4.40853161349195	-0.295728201622265	-77.6721729711374	-0.294845777710493	-77.6393379030343	-25.0114519961218	28.8140090872803	
1016000000	-21.9446519356668	-8.20276484017005	-0.293659606834347	-81.3552590023227	-0.294443043635252	-81.3184442088821	-25.0518338884221	25.6284436887498	
1018000000	-21.8427952811243	-12.3743730206626	-0.300541106408863	-85.0620421463233	-0.296804919963924	-85.011407069678	-25.0619225598028	22.8851232228334	
1020000000	-21.7708754148405	-16.4057448020814	-0.301717360299733	-88.7502309132333	-0.294837973115807	-88.715384637591	-25.1144923957956	19.310730092998	
1022000000	-21.7928145954673	-20.522947566931	-0.301029366883666	-92.4629314559773	-0.292808746001536	-92.3894989954114	-25.2264109999399	16.301533082447	
1024000000	-21.8306359512606	-24.5422320468216	-0.299574466347566	-96.1428989751344	-0.297302740214413	-96.111182731548	-25.3576378754489	13.4278459000249	
1026000000	-21.8667533839886	-28.5696708096974	-0.299653248922933	-99.8669945359735	-0.296111407195965	-99.8019935885102	-25.4645343328368	10.3218047337223	
1028000000	-21.9886046670839	-32.7484548023831	-0.301368250472303	-103.529821137519	-0.294916785992024	-103.486606389865	-25.6681474231836	7.16798159043576	
1030000000	-22.0737029839923	-36.9630578620335	-0.299221395797618	-107.234827065478	-0.291802079360375	-107.178061156428	-25.8984400922686	4.49399628558026	
1032000000	-22.2238200507634	-40.8558735098124	-0.299703502218901	-110.9269789626	-0.295042085988907	-110.875467618468	-26.1036293947007	1.48651299947226	
1034000000	-22.3900368635001	-45.1486237591375	-0.297333139570753	-114.634337715232	-0.294107111804615	-114.577322884426	-26.4294490891026	-1.54324009200286	
1036000000	-22.6643459879768	-49.6139256801331	-0.300793853100776	-118.336366370184	-0.294122495275426	-118.271164675703	-26.7462832833963	-3.93524322445068	
1038000000	-22.8931468892814	-53.7528287063548	-0.298740767027557	-122.01374661471	-0.291993953894334	-121.961221521629	-27.1415166990397	-7.09836429679443	
1040000000	-23.176291144991	-58.0631048711625	-0.300099084159859	-125.713237482751	-0.297282859485883	-125.671567458778	-27.5241519056353	-9.75100345213489	
1042000000	-23.5381638600229	-62.4258999792136	-0.298694993505056	-129.417802702329	-0.294885261980546	-129.368698728898	-28.0019952801668	-12.1457631431252	
1044000000	-23.9864404378312	-66.9243852504957	-0.297598775583728	-133.126228747267	-0.292738873005869	-133.067019827115	-28.4764967756737	-14.1111904408157	
1046000000	-24.4533843267021	-71.5575074228267	-0.298871836682449	-136.825423108439	-0.29333076771433	-136.773224681069	-29.1294615197395	-16.2481088038234	
1048000000	-24.9395389194476	-76.4084003008637	-0.294542860160708	-140.519441242175	-0.292409568725664	-140.464228697336	-29.7641445765916	-18.5818707818954	
1050000000	-25.5316287534178	-81.4362140064457	-0.295074315993483	-144.231689044788	-0.290001243654447	-144.150920175307	-30.4672173446491	-19.4341024146636	
1052000000	-26.2117123387546	-86.5196329569814	-0.296698219420476	-147.93677527862	-0.290672569691893	-147.893131597199	-31.2292885234169	-21.0294622707749	
1054000000	-26.9538728014335	-91.5515140150702	-0.296071911120018	-151.655888806618	-0.290527722084835	-151.586253894002	-31.9936253952033	-21.0969336694258	
1056000000	-27.8080784449477	-97.5221574781536	-0.295415852296094	-155.334413681508	-0.288901232341468	-155.272194853429	-33.0032689325537	-21.5167486459322	
1058000000	-28.844963923122	-103.840472285665	-0.291748652888813	-159.051331214104	-0.288612114545065	-158.98559475926	-34.1728430245075	-19.5719850245219	
1060000000	-29.8944736731364	-110.889101070904	-0.291402104684985	-162.775269761102	-0.288902164731681	-162.713612306029	-35.2980120028471	-16.4896209063042	
1062000000	-31.1373874343902	-118.6942581899	-0.292951086690909	-166.457180334676	-0.287572546216102	-166.390900390666	-36.3620215272337	-11.7948641939677	
1064000000	-32.5142482673324	-128.42845194299	-0.29103981481692	-170.16507396252	-0.287396088010369	-170.117209176725	-37.2924747963668	-3.7089462252905	
1066000000	-34.0947458664779	-141.474532337757	-0.291376070035449	-173.867986158574	-0.287973627207252	-173.813046571546	-38.0556289328467	5.81637128496319	
1068000000	-35.7006343400374	-157.116205352775	-0.290493077087151	-177.591925011308	-0.287871473725022	-177.523621010603	-38.347846745392	16.9102556195576	
1070000000	-37.0310938997544	-177.347624613519	-0.290889795768537	178.723056261453	-0.287417845531607	178.785960289189	-37.9987857352024	29.6098590200953	
1072000000	-37.5397276786352	157.926848328271	-0.28932552354442	175.003691658991	-0.289038445547665	175.056293061389	-37.3464027004864	37.1198150247328	
1074000000	-36.7517733827861	134.540653482929	-0.291906005575695	171.297436476689	-0.288170486632461	171.365620895392	-36.3384361479105	44.7447162582162	
1076000000	-35.6646931117968	113.572174043592	-0.293545938272909	167.595501796583	-0.289617201196053	167.653095900825	-35.1383259556328	50.0858071192127	
1078000000	-33.9558873209177	99.0120216006028	-0.293516479316096	163.906541509621	-0.290200932279354	163.957673688207	-34.2714376217274	53.1275621771645	
1080000000	-32.5894301721018	87.2740300312143	-0.293738728786659	160.190541717366	-0.288459747414969	160.24347951208	-33.1982385707409	54.5150364786685	
1082000000	-31.2240800841903	77.8604083770329	-0.296145297785809	156.4692186754	-0.293465053608864	156.543602277291	-32.1955261992079	55.4696003195888	
1084000000	-30.0526695652641	70.7311823106918	-0.294095545902335	152.77596031905	-0.292568138324133	152.846621482367	-31.5148831077133	55.3775602745008	
1086000000	-29.0217416858835	63.5887862084789	-0.297449812048448	149.092122682071	-0.297956434852646	149.12835658012	-30.6700412654736	54.761178266909	
1088000000	-28.1410816264023	56.9973226947421	-0.298221400283612	145.39263557543	-0.291090590025911	145.451053326377	-30.1286438078231	53.4562345243081	
1090000000	-27.3693489874232	50.8161109438588	-0.297863037320164	141.687247194199	-0.295195013115262	141.750646976219	-29.517522962502	52.1293996210894	
1092000000	-26.7074971923736	44.9433964813801	-0.302467197506654	137.999618855197	-0.296576591363359	138.056568014459	-29.0521844971542	51.0928846034905	
1094000000	-26.1760833695028	39.7592724816427	-0.304682186539861	134.292429120812	-0.297652326760025	134.353129043153	-28.5565645903195	48.9798097366215	
1096000000	-25.683784432222	34.9064378007156	-0.304718368000548	130.592793801892	-0.299893215629213	130.644023663119	-28.1823425171853	46.6774955428755	
1098000000	-25.2224356386184	29.3696783116045	-0.305390471308438	126.882863553588	-0.298204719320282	126.940917240172	-27.77609319758	44.9671085172605	
1100000000	-24.8609586184635	24.8176577296532	-0.302865523012392	123.191328096155	-0.302055510857376	123.246030666451	-27.4765079968294	42.4965847671743	
1102000000	-24.5328144541338	20.0900730402535	-0.307885422485233	119.489369804476	-0.302146261422373	119.560130456369	-27.2853459248121	40.2844684700084	
1104000000	-24.3308981616719	15.187027357725	-0.306603998626682	115.791555404677	-0.30503026130521	115.857797942185	-27.0241613115008	37.9826350086635	
1106000000	-24.1210449376619	10.5093083402917	-0.307515699043744	112.114688810717	-0.304064816484039	112.15846613413	-26.909083416581	36.2443876578658	
1108000000	-23.965552671783	5.79415756342898	-0.311510776929975	108.417741012097	-0.30410984499021	108.462384555723	-26.6929897686702	33.7627349658917	
1110000000	-23.8309126955244	1.24583079206612	-0.312287446489573	104.695639488346	-0.305725124415717	104.768484739151	-26.6711796502337	31.6292435856187	
1112000000	-23.7660251844091	-3.25543417151845	-0.31047079948702	101.018337458012	-0.304235174181855	101.095135852877	-26.6324203087231	29.5552535919518	
1114000000	-23.7886640760612	-8.16948304417373	-0.310623590582967	97.3265233380487	-0.305880552201802	97.3918213525964	-26.6576672428067	27.4606992462518	
1116000000	-23.7719174704011	-12.7703660432994	-0.312618549182994	93.6195058261167	-0.305092733907178	93.6819941280163	-26.6049277221505	25.3091948526524	
1118000000	-23.8347954865417	-17.3192682903222	-0.310969258202872	89.9341339652884	-0.305857855515571	89.9969756242058	-26.8195314317159	23.0603777905173	
1120000000	-23.9356216922245	-21.8610739496389	-0.310158717324301	86.2529123084171	-0.302764866430884	86.3053275531599	-26.8923885571578	21.1750326986206	
1122000000	-24.0617668882492	-26.5222227863864	-0.311714297624268	82.537118197012	-0.304284677681033	82.6128888165624	-27.1747766515505	18.8266576929613	
1124000000	-24.2607317061639	-31.403365552106	-0.311066214229513	78.8497353044193	-0.303289776785877	78.9279382548579	-27.3804616833459	16.4667165470854	
1126000000	-24.4841961468446	-36.0084457125656	-0.311163738479547	75.1498947710339	-0.302301687262632	75.2371682884011	-27.6221526150232	14.5829890728837	
1128000000	-24.8010981528352	-40.7597706093299	-0.308643850173588	71.4415936775216	-0.299183738339286	71.5237362331429	-28.0027935137024	13.3581771432254	
1130000000	-25.130893920148	-45.8388058500972	-0.309551083306027	67.7366412226349	-0.296998509750418	67.8072801722946	-28.3672688141201	11.1902543391529	
1132000000	-25.5255043522666	-50.9909567217307	-0.304978895900431	64.0454719963019	-0.299536245376934	64.1365287108987	-28.9555265952442	9.52325472877812	
1134000000	-25.9763074591892	-55.8850710529846	-0.306155110892942	60.3232314451262	-0.298434192004398	60.4318321212787	-29.5040189115313	8.33328767635456	
1136000000	-26.5720482553728	-61.2097588428441	-0.304956054673396	56.6548617967375	-0.297063171939882	56.7059920548416	-30.2104325852614	7.77209160203615	
1138000000	-27.1362626278124	-66.6567066720737	-0.304031027045544	52.9492743073201	-0.29597241669023	53.0217731489307	-31.0404278947935	7.86218460044268	
1140000000	-27.8203320193589	-72.3483727416613	-0.303773149723777	49.2473389360241	-0.297892165467657	49.3428828646415	-31.8220393452782	7.65549921291735	
1142000000	-28.5996731311253	-78.1572202973297	-0.301092875756163	45.5320011585165	-0.292386271018558	45.6142178210484	-32.8903551835788	9.13363911592652	
1144000000	-29.5021845581596	-85.0579331309803	-0.298456453686758	41.8348152878317	-0.291580845880603	41.9107815822881	-34.159943165779	11.9575278162426	
1146000000	-30.6239958828141	-91.7139786239222	-0.296758397670858	38.1281583819941	-0.291983194518529	38.1790711289141	-35.2848278308094	16.7649762825885	
1148000000	-31.8471027103875	-100.398465567226	-0.296188516487978	34.422718620568	-0.29165180551094	34.5130834796615	-36.4380069616881	25.8563567655338	
1150000000	-33.2691144770339	-108.382531532052	-0.300671572073952	30.6940334006706	-0.289640021294394	30.7707035271487	-37.8050874375457	38.2549274394033	
1152000000	-35.0048422394494	-121.069956442703	-0.300403457285256	27.0091507716766	-0.290792644736266	27.0788257695311	-37.9121338982796	53.7292506293684	
1154000000	-36.6464668561387	-136.140978570101	-0.296990587438382	23.2939557891319	-0.290182644127228	23.3570364148672	-37.1552610846192	68.5809759925315	
1156000000	-37.9629957104097	-160.264396209467	-0.298054933857595	19.5961507201096	-0.290001601431817	19.6491470783683	-35.906912082847	82.4232765541728	
1158000000	-38.6865861376119	172.391959783311	-0.296594856747968	15.8671533175043	-0.291280057961586	15.9403505492263	-34.2850703945454	89.0175726874542	
1160000000	-37.8225514165513	147.696986645735	-0.299954919642143	12.1606648256353	-0.291528409493563	12.2344009466458	-32.7808397174334	93.7423438983549	
1162000000	-36.2081583494701	123.41364085075	-0.299881602755635	8.44892710721532	-0.292351616780629	8.51432331065353	-31.467922076715	95.8819793046244	
1164000000	-34.2479967207355	108.947428291053	-0.299367456447656	4.73094941686248	-0.295091609364288	4.78796241421344	-30.2226669537064	96.4363335875979	
1166000000	-32.3225586148412	97.1818377230461	-0.304303485061014	1.02222491124006	-0.294771623136311	1.07974178550871	-29.0364006682396	95.523259508198	
1168000000	-30.7935783689359	88.0852933027404	-0.302210490241864	-2.69401487132107	-0.297278391523747	-2.64099193086548	-27.9481254732418	95.0385798508278	
1170000000	-29.3627746508661	80.1472128731186	-0.305990481508722	-6.40995284914137	-0.297554457720271	-6.37187538517863	-27.0979816608645	93.9857258600364	
1172000000	-28.2123207152768	73.288358768526	-0.306684941719296	-10.1366103273538	-0.297239433205966	-10.0536500302637	-26.2271731920279	91.9072731398664	
1174000000	-27.1716082179538	66.9877898824842	-0.311657172678808	-13.8595256545109	-0.306179455963283	-13.7727889132051	-25.4980900010945	90.0697588336751	
1176000000	-26.1367790204822	61.6184488805636	-0.314741839208184	-17.5547696738339	-0.305575578245693	-17.4842228620253	-24.7834087643944	87.3211363202471	
1178000000	-25.2836974759603	55.8421162989032	-0.316353650547408	-21.2504390753735	-0.308958738530084	-21.1966433084109	-24.1392209944454	84.7776000371881	
1180000000	-24.4393197169258	50.7988957290273	-0.31811575703601	-24.9662322583642	-0.312710981404924	-24.9127249793936	-23.563710971046	82.4179367884234	
1182000000	-23.7281054844262	46.0239376340412	-0.319603331811424	-28.6799217744015	-0.313648332471634	-28.6386100900748	-23.0726607113158	79.1387606366419	
1184000000	-23.0560893206152	41.3309261876339	-0.323798114000786	-32.3849763431192	-0.31634833188218	-32.3332064641258	-22.6031767016738	76.5332126978916	
1186000000	-22.3910566307343	36.8375523771052	-0.326663902125537	-36.1105737431197	-0.321300810853099	-36.0311614599949	-22.1133456013268	73.3024866782761	
1188000000	-21.8418760434153	32.2740424016758	-0.332458428762974	-39.8106889636626	-0.323876668702053	-39.7366034950263	-21.7215908243171	70.2088995567485	
1190000000	-21.3604821542148	28.2101333706295	-0.331463770709387	-43.5098339490032	-0.326215762478537	-43.4365737916437	-21.3480994805338	67.0196047850232	
1192000000	-20.8353461943422	23.8062411018672	-0.337551488042438	-47.2134838828537	-0.33001641549418	-47.1420954181368	-21.005449528743	63.6812826173945	
1194000000	-20.3757768629863	19.8107583662242	-0.340339694898098	-50.8988841558383	-0.33176863341715	-50.8631099283334	-20.7405302672425	60.4543845969957	
1196000000	-19.957508396827	15.5342939636379	-0.344321568446045	-54.6139908506703	-0.333335815006192	-54.5466233041805	-20.4306065500427	57.1288511120896	
1198000000	-19.5857777211345	11.4176110797453	-0.347508956938056	-58.2928244832352	-0.339775078101545	-58.2374597308532	-20.1844673144936	53.6955430356918	
1200000000	-19.2233341674074	7.26527121652084	-0.353137446948283	-61.9944909885841	-0.343078651001544	-61.9421788109289	-19.927363809787	50.5835824359872	
1202000000	-18.9188793781407	3.54602496535782	-0.353717273172037	-65.6878271378203	-0.347338768985625	-65.6136077377266	-19.696679307339	46.9555023556315	
1204000000	-18.6309711045951	-0.34679948161138	-0.356233531457454	-69.3702002050616	-0.349353450612866	-69.3106334293862	-19.5333821745062	43.5302521607316	
1206000000	-18.3739522348122	-4.25313995458444	-0.358706174731645	-73.0399633664675	-0.351771715774505	-72.9911407317448	-19.3804217217212	40.0663095256213	
1208000000	-18.1341716936065	-8.13918625892934	-0.361903677095038	-76.7333235729046	-0.354919533379917	-76.694572602561	-19.2344275760168	36.6157101031101	
1210000000	-17.9253065145341	-11.92411489694	-0.366634974516194	-80.4092593326998	-0.356502777965443	-80.3569809199617	-19.1290339130114	32.9907026277713	
1212000000	-17.7508950234318	-15.7634825033324	-0.364462501208591	-84.0766935407553	-0.362461225587575	-84.0362621601988	-19.0154784671741	29.8060044549917	
1214000000	-17.5887218592161	-19.4807617764512	-0.369036557627251	-87.7775284735289	-0.361848391571702	-87.7284456217528	-18.9375965151124	26.1425058628048	
1216000000	-17.4575228545209	-23.1049709738453	-0.371099455478468	-91.4450566751204	-0.364242525193754	-91.4117237883483	-18.90618245681	22.7397855614305	
1218000000	-17.3520914100546	-27.135330247669	-0.375665866945438	-95.1256640353188	-0.365244871243541	-95.072874643127	-18.8163123540179	19.2228678845219	
1220000000	-17.2813552187858	-30.6822847172665	-0.374944117836685	-98.8083170701013	-0.363941681093984	-98.7650699770532	-18.8280028706114	15.9745619521089	
1222000000	-17.2126368121897	-34.43051832297	-0.375198390106752	-102.493507535877	-0.369151502532487	-102.430165517188	-18.8240231316824	12.2824008171204	
1224000000	-17.1883876444559	-37.9901248829994	-0.37753161207232	-106.121932306034	-0.366571265390182	-106.117715109854	-18.8474374196302	9.05158824485118	
1226000000	-17.1918239135791	-41.7627930664847	-0.378049215951186	-109.829145317807	-0.369584573952487	-109.788671595311	-18.8693132436234	5.54432724053379	
1228000000	-17.2092453161167	-45.7135015369909	-0.374045080000034	-113.482430965668	-0.369633471876917	-113.465038709	-18.9589161337197	2.00151617847489	
1230000000	-17.258970981872	-49.1753626080399	-0.375581147761792	-117.154560479931	-0.372067704593583	-117.127441031928	-19.0265125666668	-1.17833952080822	
1232000000	-17.335358911724	-53.0010165202732	-0.375173593461473	-120.852821067643	-0.367492681663603	-120.816870773038	-19.1458334142306	-4.6859232428364	
1234000000	-17.4564462050535	-56.579302624607	-0.37485419548767	-124.538489460805	-0.36710975784013	-124.499459965166	-19.2209261343254	-7.93065951334454	
1236000000	-17.5903774932666	-60.3091162610888	-0.372025647116669	-128.193208796754	-0.367798381390845	-128.18109377329	-19.3921915675324	-11.3570996835344	
1238000000	-17.7410551018299	-64.1582695026464	-0.370713049044675	-131.882683347428	-0.364746552316532	-131.83760101798	-19.5730667891909	-14.6765487318085	
1240000000	-17.8965928439326	-67.9494336524942	-0.369664840525779	-135.576344191798	-0.363472232495421	-135.50150551263	-19.7984284493318	-18.3301739021503	
1242000000	-18.1437844998856	-71.7675635471567	-0.366015979681947	-139.231806925392	-0.362502439013268	-139.194639533446	-20.0008783926352	-21.3656200892672	
1244000000	-18.4182455418306	-75.486619169588	-0.367323123737954	-142.922712867996	-0.3567525728362	-142.871857249422	-20.297661282036	-24.6422539209815	
1246000000	-18.7220866341712	-79.2333149721442	-0.361226236302026	-146.601373174416	-0.351460552453078	-146.559003212651	-20.5483212791082	-27.8778779698184	
1248000000	-19.0683044174439	-83.1214359905242	-0.357901805676466	-150.305135025291	-0.352853629629628	-150.264906498557	-20.8972665047225	-31.2475426362313	
1250000000	-19.4811627817642	-87.1783931506652	-0.356800511734783	-153.983068921746	-0.351971335478327	-153.943878694495	-21.2976409881876	-34.2877685802468	
1252000000	-19.8764784305407	-90.9235513227026	-0.353225072893684	-157.66937945738	-0.343160687083386	-157.641747962861	-21.6909334536559	-37.4958410746039	
