!Agilent N9923A: A.05.17
!Date: Sunday, 01 January 2006 13:24:23
!Model: N9923A
!Serial: MY50371189
!CHECKSUM:1342486954
!Correction: S11(ON U)S21(OFF)S12(OFF)S22(OFF)
!S2P File: Measurements:S11,S21,S12,S22:
# Hz S DB R 50
1000000000	-20.1991594700722	-89.8622790167304	-1.92640116125817	-177.566529232735	-1.892571750175	-177.549307922292	-19.9299210670658	-58.3229669115736	
1002000000	-23.5520634425471	-101.642489654588	-1.90665457212798	169.019062673098	-1.8728383490021	169.032567490403	-22.4171912562182	-60.8639019482764	
1004000000	-29.5930062604681	-113.324307217399	-1.89053604914791	155.540838092219	-1.8577842341844	155.576503238734	-25.3087410111381	-54.5611174560438	
1006000000	-65.0746639145122	-29.8330350977326	-1.88731340316738	142.073475262032	-1.85478523370503	142.088358202156	-27.1074102821502	-34.039692486347	
1008000000	-29.9625883027666	43.2015325931169	-1.89339032484088	128.61340823183	-1.85641911376767	128.601686805848	-25.8992368880816	-15.0869281455003	
1010000000	-24.4510797713756	32.2311211716348	-1.9047863839408	115.148021969715	-1.86994071184364	115.172863204255	-23.7626902271583	-10.7134128437661	
1012000000	-21.6234466450055	22.3220607596906	-1.91723515865933	101.734985209814	-1.88776776066636	101.753751453564	-22.1401936035035	-15.5265136668902	
1014000000	-19.9711054958981	13.0342010596854	-1.93522838477955	88.3749318731657	-1.90089102058472	88.3709264212235	-21.1770543725033	-25.3947780497684	
1016000000	-19.032051547397	5.15429293135911	-1.94148203923226	75.0558654765049	-1.91466377476987	75.0470537201369	-20.8936724608661	-38.8508302881065	
1018000000	-18.6757171579455	-1.37826921593875	-1.95270320047635	61.6949853315836	-1.9231601990399	61.7024446069522	-21.2137737113679	-55.1025543664288	
1020000000	-18.6400629340026	-5.56355827332406	-1.95409119297586	48.3247206636725	-1.92268147230628	48.334974012671	-22.0901908307066	-76.0307606812128	
1022000000	-18.7876431627095	-6.63107788130042	-1.95328433701845	34.9085598443379	-1.92056129306993	34.9287911281759	-23.3412929180981	-103.7798607659	
1024000000	-18.781796680547	-4.32746435189855	-1.9579369464591	21.4462682670391	-1.9286069685392	21.4319520334876	-24.0445699127509	-141.135961306718	
1026000000	-18.2878554429175	-0.0947702301730541	-1.97453922946394	7.88938814992216	-1.94157290520958	7.90384960863347	-22.9748558838248	177.360174845491	
1028000000	-17.2003579331817	3.35142008003941	-2.00328544670659	-5.64571006723056	-1.96752724916825	-5.63624985976033	-20.5251417202931	143.221835823205	
1030000000	-15.7452073609029	3.91428202196033	-2.04912829634131	-19.1944248231224	-2.00740150786552	-19.2107499017156	-18.0157136292728	117.759217008794	
1032000000	-14.2803169410745	0.917200327894221	-2.10985318609956	-32.6626619859486	-2.07136800719007	-32.724714887475	-15.8932901628367	96.9735367724212	
1034000000	-12.9348722297298	-4.39207761366092	-2.18572371085136	-46.0507644244917	-2.15244480896979	-46.1210453522899	-14.234907220259	79.149281562348	
1036000000	-11.8173144995985	-11.630891471348	-2.27189800552914	-59.282291009083	-2.23635270420578	-59.3525906499798	-12.9259959150732	63.0272659006681	
1038000000	-10.9431045166882	-19.9899046054526	-2.35613470198249	-72.3330163588102	-2.32279402443335	-72.4158916696028	-11.9667669754422	47.8406103738255	
1040000000	-10.2914048235908	-29.0892466137906	-2.42854060509871	-85.2454189213037	-2.40001497159446	-85.3357951753324	-11.2771577977799	33.6749655092996	
1042000000	-9.8707480517278	-38.6802539800643	-2.48074931767835	-97.9847417014736	-2.45827554957081	-98.0833011366382	-10.8440952665678	19.9772367920962	
1044000000	-9.66665747897021	-48.6304713253447	-2.51297578539192	-110.652563249449	-2.49060304677542	-110.746070611123	-10.6323826903585	6.80040288616183	
1046000000	-9.68254094316835	-58.8298699379554	-2.51548287779848	-123.282244785453	-2.49356302548725	-123.344999490051	-10.6547629597571	-6.12739570296929	
1048000000	-9.90978074059164	-69.2115807003844	-2.48815238185028	-135.92243441539	-2.46892357197731	-135.967838129805	-10.9044708219189	-18.8668733273857	
1050000000	-10.3974030955436	-79.6869092666041	-2.42886658733887	-148.660392925326	-2.4103393983224	-148.696304929098	-11.3976299693199	-31.2800786002384	
1052000000	-11.1793487298529	-90.12148439027	-2.35547726489423	-161.565375356897	-2.3371448094088	-161.591011236102	-12.1890962477221	-43.6506296508966	
1054000000	-12.32492750951	-100.355083148676	-2.26461060085397	-174.620756624249	-2.24383951444018	-174.662070418707	-13.3353753923041	-55.7319185211711	
1056000000	-13.9326271410263	-109.869243106977	-2.17399877763371	172.090987197578	-2.15260108654212	172.074127909621	-14.9867212738028	-67.4584465426285	
1058000000	-16.2098310862054	-117.793531144507	-2.09254038347425	158.600518544531	-2.07165806275467	158.604147363872	-17.3748508892319	-78.2099822456295	
1060000000	-19.4649813867579	-120.970394622778	-2.03062174445104	145.00254367885	-2.00708792501184	144.967576076957	-20.9687983361042	-86.3012140745535	
1062000000	-23.8755011610265	-109.904766907246	-1.99667679483717	131.299294514047	-1.97276572942377	131.260271195998	-27.069747865769	-83.7001764311903	
1064000000	-25.5801514293345	-69.7492701348439	-1.98536129216261	117.593819966168	-1.96308104493222	117.501094999129	-32.3184062216126	-13.5453551085589	
1066000000	-21.7957130773528	-46.3319872788086	-2.00331434488942	103.91942996567	-1.98054334432688	103.867033409041	-24.6400609174103	18.3898056741012	
1068000000	-18.5286885975562	-46.0255681669381	-2.03388252995931	90.3529689884288	-2.01748069856438	90.2939900150489	-20.2834504770915	15.0918388432954	
1070000000	-16.4015705923687	-52.9902534518142	-2.07305550455518	76.9434610909124	-2.05443522151628	76.8985783496536	-17.7682536563284	6.55203284914855	
1072000000	-15.0298743779482	-62.3978700350906	-2.11556052728065	63.6580522425438	-2.09907213084978	63.6139407468123	-16.1844054191011	-3.41974272023555	
1074000000	-14.2656589208492	-73.360181652326	-2.14496726751811	50.5148875632926	-2.12855768243773	50.4829504984704	-15.2560703918607	-13.6842244311436	
1076000000	-13.9621804847385	-84.9167047949228	-2.15947846207683	37.4320017591999	-2.14273473450901	37.3857711967161	-14.7980202087374	-24.0192769760403	
1078000000	-14.0624856176589	-96.9428514062554	-2.16130488618305	24.3473562966077	-2.14463377555884	24.3210313385523	-14.7355649774301	-34.1109568953705	
1080000000	-14.5634194481255	-109.313997456255	-2.14929691569622	11.2447745466572	-2.13019540479587	11.2268489450486	-15.0418882015796	-43.7414233915625	
1082000000	-15.5194442617009	-122.2185855592	-2.11685319762756	-1.93524344618271	-2.10359757507854	-1.93023484604127	-15.7481433265516	-52.7061517762621	
1084000000	-16.9898683372076	-135.462632983857	-2.08379441713265	-15.1796923431364	-2.06982459630784	-15.1670808475658	-16.8302005075421	-60.6878194956489	
1086000000	-19.1896656141562	-149.040720085484	-2.04906406156175	-28.5027924688548	-2.03718702981616	-28.5080058035318	-18.3891635884995	-66.6683977818305	
1088000000	-22.5096728401811	-163.27295254644	-2.02234244302182	-41.9304036061429	-2.00400023249999	-41.9122249299543	-20.4429490483576	-69.4191215323419	
1090000000	-28.286526558853	-178.71603282485	-2.00433702038772	-55.3974250578118	-1.98587619567392	-55.3940039882551	-22.953831279266	-65.3107285036303	
1092000000	-48.3349311764769	135.722275886207	-1.9955556375099	-68.8856048694594	-1.97777013131777	-68.8880545440673	-25.1320388390087	-50.395773546373	
1094000000	-30.739391708245	-19.7063221559436	-2.00035779757278	-82.3859475493037	-1.97741094673849	-82.3790799613601	-25.1717511063115	-28.4539800484851	
1096000000	-24.9812964220611	-36.3673689871272	-2.00784857872999	-95.8251207152408	-1.98919084357285	-95.8378726364654	-23.4724050077965	-15.274983402505	
1098000000	-22.1581681193208	-52.6337335519706	-2.02055602700113	-109.252920959838	-1.9999625814565	-109.250745844808	-21.6968319958471	-11.2096221795041	
1100000000	-20.766598963387	-68.7058735919397	-2.03466299064898	-122.579550449894	-2.01832778748764	-122.613195258768	-20.3832936569682	-11.6685466459937	
1102000000	-20.1345774978156	-85.9829460081273	-2.04325586756317	-135.953173955661	-2.02920609403488	-135.934834224467	-19.5375445616889	-14.1323346890844	
1104000000	-20.1366513790741	-104.83641352556	-2.05215519548835	-149.269084511937	-2.0366193952356	-149.296623061578	-19.0618370107322	-16.4928950735922	
1106000000	-20.5995623252507	-126.385979384843	-2.05502137853959	-162.609134752818	-2.04137950326733	-162.640650234228	-18.8228206904043	-18.2059545682953	
1108000000	-21.4248428335423	-151.69657112884	-2.06242679401843	-175.965500820059	-2.04640748004558	-175.982459641112	-18.692755172925	-18.6217591926641	
1110000000	-22.0435547992325	177.077598638973	-2.06717522634418	170.64146619055	-2.05301500488273	170.651242030349	-18.4596418474562	-17.8732370620005	
1112000000	-21.8601134302324	142.280295689529	-2.07842019664593	157.236645795769	-2.06247180257534	157.251173030899	-18.0240166346591	-16.5877625011086	
1114000000	-20.6624080876107	109.299563629908	-2.09587025170745	143.850290346123	-2.08024180729436	143.844342610204	-17.3395738645851	-16.0443233023931	
1116000000	-18.9923385296081	81.7735207252356	-2.12285170604805	130.483820858243	-2.10452958949043	130.489107870997	-16.5078167985153	-17.2508555272556	
1118000000	-17.3348336034474	59.4731920628227	-2.15358875143126	117.166054453582	-2.13416200717495	117.173982833532	-15.6288264967988	-20.6523341548627	
1120000000	-15.9916526242391	40.5196580911078	-2.18295572159375	103.926187375231	-2.1649080627076	103.92165469466	-14.8850988396325	-25.830496686119	
1122000000	-14.980102966904	24.0171584763595	-2.21304826770226	90.733141882175	-2.19420845061147	90.7434793262859	-14.2898432883582	-32.7661274297532	
1124000000	-14.2842569199159	9.03382075305459	-2.23459009583343	77.6094724474702	-2.21980904993802	77.640282824162	-13.899963023466	-41.0260513797669	
1126000000	-13.8819802595188	-4.45756085043303	-2.24855995984452	64.5299014405753	-2.22921546014307	64.5504205773377	-13.7582692077189	-50.2818429419798	
1128000000	-13.7623755776732	-16.8139360318615	-2.24619085274951	51.4546590345472	-2.23267390950788	51.48556011533	-13.8757646881179	-60.6393703923934	
1130000000	-13.8898280577991	-28.1406815502825	-2.23745527084142	38.351559327326	-2.21639870468811	38.3927182374842	-14.2595151947668	-71.9760721548724	
1132000000	-14.2984139779396	-38.3323565968409	-2.21496870224819	25.2237895239884	-2.19673835349861	25.2947086383638	-14.9495360609206	-84.49747920254	
1134000000	-14.9194188994533	-47.0013149706607	-2.18777968421184	12.0257124798503	-2.16759443278788	12.0894136361083	-15.991983806007	-98.4034658343066	
1136000000	-15.763074367669	-53.6932049415157	-2.15562597615691	-1.23015949552885	-2.13405549107521	-1.20472108721898	-17.4489514080367	-114.375356478632	
1138000000	-16.7485348075141	-58.0719273042293	-2.12609097573428	-14.583943986609	-2.105557023842	-14.5425574581689	-19.4100204162127	-133.884573622254	
1140000000	-17.6814693644108	-59.4655866447193	-2.10889872345919	-27.9964127608908	-2.0854886883275	-27.9605746229406	-21.7386041607832	-159.452450121941	
1142000000	-18.3655623869243	-58.1826358851459	-2.09659622765619	-41.4238166663697	-2.06924419130709	-41.3882688026517	-23.7572143047121	165.140705520239	
1144000000	-18.5734973869375	-56.2075340156767	-2.09145029244804	-54.8792280135854	-2.06942142063551	-54.854250800261	-24.0129741256255	122.969580721452	
1146000000	-18.3800617954042	-55.2829055525396	-2.09525185478345	-68.2624227828571	-2.07217521670639	-68.276995498716	-22.5316982521849	87.9295777672472	
1148000000	-18.0057039215549	-56.7710888083419	-2.10610004948848	-81.6163128943238	-2.08667588275845	-81.6417334893027	-20.8223572166312	62.6660857536545	
1150000000	-17.6851885506963	-60.9350166429863	-2.11800386253075	-94.9594214030628	-2.09610785650182	-94.9794065711355	-19.5808266328464	43.1716346613714	
1152000000	-17.6010607932287	-66.852202081887	-2.12091510935037	-108.242792880671	-2.10195364114209	-108.27316912246	-18.9112537269729	27.5141469605991	
1154000000	-17.8578584588941	-74.2502284128457	-2.11892670781854	-121.545347081481	-2.1019872895316	-121.540907101064	-18.7689861930399	13.6043173029338	
1156000000	-18.5632891203087	-82.4978632072157	-2.11343275969281	-134.812164016283	-2.09373930687212	-134.818935733812	-19.2611808340002	1.62841183673898	
1158000000	-19.8946333201012	-90.3860160207621	-2.10120164579537	-148.180828216081	-2.08001952795023	-148.152864133926	-20.3390785711092	-8.15275828060661	
1160000000	-22.0365269824884	-97.1244205818477	-2.08566808640733	-161.563185498449	-2.06490243249871	-161.541838014493	-22.2689781987272	-14.4856147505199	
1162000000	-25.6999832882948	-98.5447162272036	-2.07669590224972	-175.020276354044	-2.05422847879125	-174.996468783515	-25.2889766148117	-12.3770294824893	
1164000000	-31.478342769692	-74.2522089578399	-2.0703137161562	171.461060578082	-2.0520922679252	171.456268794558	-28.3803406908058	11.7405286630001	
1166000000	-29.2658816265018	-12.9967790874579	-2.08428681886907	157.937265985981	-2.06168096870514	157.922639855452	-26.2708754025948	47.5038757228139	
1168000000	-23.3787452265434	-2.76408477645679	-2.10257830080069	144.378545694256	-2.08145402253446	144.374914392879	-22.1041812160428	57.9547637791034	
1170000000	-19.6774310777366	-7.93743537196381	-2.14437250586568	130.905120954004	-2.12126715911773	130.857806120747	-18.9385991416294	55.1806147941875	
1172000000	-17.1615765785848	-17.1827745870962	-2.18825484934027	117.460017737721	-2.17107081368271	117.426581372038	-16.6780815642075	47.9796136575875	
1174000000	-15.4164830247384	-28.0569061655525	-2.24479668992516	104.12312442402	-2.22600898688777	104.095926475379	-15.033880831008	39.0930903740166	
1176000000	-14.1869603181446	-39.8488605391911	-2.29724133121756	90.9116207432299	-2.28143791835318	90.8827069865858	-13.8798877548978	29.602475978136	
1178000000	-13.3651464985651	-52.2203914230636	-2.34328628437864	77.8233484228006	-2.32635321474475	77.7733312669496	-13.0676081789967	19.8578477731342	
1180000000	-12.8532645472385	-64.9848206447389	-2.37457659107632	64.796211813369	-2.36016020460221	64.7638145885164	-12.5721624537331	10.3332289021147	
1182000000	-12.6584684386922	-78.3143346456592	-2.39253400828265	51.8229505070062	-2.38263938415245	51.7475671971077	-12.3339420071232	0.944068046440399	
1184000000	-12.7068196798845	-92.2398129872457	-2.39678567184058	38.8370240983385	-2.38404953165117	38.8079061515517	-12.335882040857	-8.01535869718591	
1186000000	-13.0406490030367	-106.96928154423	-2.37992760175464	25.8044688888323	-2.37126958052147	25.7911652970433	-12.5424499764872	-16.234859689167	
1188000000	-13.6511638129022	-122.869442097927	-2.35827768722685	12.7376652069219	-2.34699726752538	12.7121047867672	-12.9137237498684	-23.581326026231	
1190000000	-14.4991039685171	-140.275126659129	-2.32865374661897	-0.434738209525673	-2.31763163420638	-0.480982017167736	-13.4472864540679	-29.817577615413	
1192000000	-15.6226207574116	-160.179867363128	-2.29507417349278	-13.706280508569	-2.28196061433214	-13.7408692923293	-14.0456655205822	-34.5638710458306	
1194000000	-16.8744064990704	176.381749480232	-2.26981107505525	-27.0405875323275	-2.25489107617131	-27.0894968994836	-14.625786107274	-37.7940820472565	
1196000000	-17.9838609994014	148.863448568413	-2.25280276291536	-40.4761594977398	-2.23814980796798	-40.5040019981419	-15.0613507131765	-39.5000588759756	
1198000000	-18.4985523854403	117.842468386411	-2.24937003768297	-53.8921743287817	-2.23652236796239	-53.9300253464099	-15.2506988887937	-40.7384171775726	
1200000000	-18.1382081857675	86.9231669254152	-2.25413675970733	-67.32892304742	-2.24105820365159	-67.3344417940121	-15.1858070777433	-42.6114189335093	
1202000000	-17.218790578673	59.9727089312207	-2.26886964572782	-80.6811512802904	-2.25791094776643	-80.6751916898135	-14.9237384229841	-45.7967879533049	
1204000000	-16.1659593665082	37.5906010920675	-2.28810290957665	-93.9851633933535	-2.27628968498927	-93.9955993970827	-14.6353949962149	-50.7987152645653	
1206000000	-15.2987511250572	18.8522158718264	-2.30618805029974	-107.203725510092	-2.29305218006917	-107.195995917778	-14.4283559275973	-57.717647112547	
1208000000	-14.6630387482569	2.59530158572362	-2.3170342496291	-120.36353978747	-2.30612356419821	-120.393479616554	-14.3598039876188	-66.2032803009652	
1210000000	-14.3278415806535	-11.7684906972276	-2.32407129007158	-133.501380363161	-2.30933348175743	-133.494893152788	-14.5067551950552	-76.1220010759946	
1212000000	-14.2641684590522	-24.4000547514471	-2.31139249663189	-146.622267976824	-2.29864395604422	-146.601981679829	-14.9048285297806	-87.3298459476911	
1214000000	-14.4802488836295	-35.6288328552242	-2.29304874434717	-159.766647780757	-2.27883415987124	-159.783680535063	-15.586220436627	-99.8818970701299	
1216000000	-15.0062575375279	-45.2946376045539	-2.26333266906098	-172.973486719314	-2.25035155184052	-172.986114332611	-16.6213526171811	-114.06575354008	
1218000000	-15.7792131996819	-52.967533527991	-2.23661340652828	173.737865681834	-2.21805111504826	173.730197585034	-18.023367092243	-130.480750748794	
1220000000	-16.7801799219254	-58.1083671594752	-2.20328660046787	160.386857804367	-2.1898595953696	160.365266983536	-19.888695161132	-150.168882345024	
1222000000	-17.8580503933868	-59.9668118471529	-2.17935447329854	146.954416902489	-2.16583662489843	146.931840688879	-22.1523021360414	-176.319575896417	
1224000000	-18.7220847430958	-57.7503392135535	-2.16484701613273	133.499184766426	-2.15147571201209	133.461513649711	-24.0166246190901	147.889595077833	
1226000000	-19.0146734738967	-53.3075022503747	-2.16126993414094	119.98052990274	-2.14881027945845	119.991521569612	-24.1807909412518	105.811990905959	
1228000000	-18.6679842460486	-50.0316089170203	-2.16851043463348	106.55421360152	-2.15402327406693	106.5252667144	-22.6919090619812	70.6462913868436	
1230000000	-17.9770328160245	-49.4011577721734	-2.17875977102699	93.1428326899987	-2.17088870075794	93.1164837382317	-20.8888700551505	44.9093111330644	
1232000000	-17.2863314194308	-52.4813415383921	-2.19791090546088	79.7719895638273	-2.18343587597612	79.7457040543519	-19.5483124019055	25.0309524908755	
1234000000	-16.8170703626471	-58.2205902943955	-2.21045863117368	66.4646186700443	-2.19811538526077	66.4410262032958	-18.6649763313421	8.87464851749706	
1236000000	-16.6817616026015	-65.957620374776	-2.21741609077933	53.2136927482221	-2.20863284122358	53.1689050953098	-18.2973105490225	-5.26018155269477	
1238000000	-16.9336971786665	-74.9822071022818	-2.21572798414953	39.9382071379667	-2.20728085252861	39.9344400840426	-18.3916314781553	-17.5907835909471	
1240000000	-17.6986282281436	-85.2375829248529	-2.21158553963848	26.6853035028926	-2.19908518086998	26.6075647956802	-19.0551255286926	-28.8001355903262	
1242000000	-19.1693334918368	-96.1458989966441	-2.19468190126856	13.3605386903412	-2.18961718152214	13.2713059758306	-20.1060611323881	-36.6496007120405	
1244000000	-21.6613122407988	-108.073885949074	-2.17977314393222	-0.0199074915593541	-2.17108280287448	-0.105811302694596	-21.6987142353282	-39.7980251989908	
1246000000	-26.1473816537719	-121.882898474472	-2.16656170269668	-13.4897098639548	-2.16088412696817	-13.5852995568211	-23.5059598202006	-34.9835399519234	
1248000000	-38.6083151239815	-153.382896878293	-2.1652527509189	-27.010413040603	-2.15954398316069	-27.0841426122258	-24.3331836253856	-19.7713698856578	
1250000000	-30.1470122779398	50.3127838568607	-2.17729515137674	-40.5491557089205	-2.16973633369901	-40.613225329316	-22.9557968162892	-4.09359650373941	
1252000000	-22.7663623341142	33.2155104231669	-2.20460510542981	-54.0321992410876	-2.1977289926411	-54.1045670055526	-20.5638913307097	0.707735307923907	
1254000000	-18.9743380440471	19.798701888733	-2.24470499224353	-67.4975569350658	-2.237045002633	-67.5752361308173	-18.4126984783948	-1.78693898932452	
