!Agilent N9923A: A.05.17
!Date: Sunday, 01 January 2006 12:14:27
!Model: N9923A
!Serial: MY50371189
!CHECKSUM:1445105793
!Correction: S11(ON U)
!S1P File: Measurement: S11:
# Hz S RI R 50
2000000000	-0.343304296353538	0.939419948747131
2000800000	-0.339738549390542	0.940935489184335
2001600000	-0.336410362455294	0.942258706001087
2002400000	-0.332893249573095	0.943523583854335
2003200000	-0.32928925526835	0.944853036524301
2004000000	-0.325656623407709	0.94627810055255
2004800000	-0.322017870872584	0.947611549354262
2005600000	-0.318422888721126	0.948846229990042
2006400000	-0.315072985836035	0.950410569830264
2007200000	-0.311244629740995	0.951882984168924
2008000000	-0.307509486704818	0.953122175944813
2008800000	-0.304101658935057	0.95456275430166
2009600000	-0.300183152401286	0.955685855176298
2010400000	-0.296397948830777	0.957235883345406
2011200000	-0.292657541580236	0.958560678243974
2012000000	-0.289323078657163	0.959354447358699
2012800000	-0.285583583137546	0.96093522787626
2013600000	-0.281625963678487	0.962542911301377
2014400000	-0.278030850563237	0.963373362774246
2015200000	-0.274255668758803	0.964603171966321
2016000000	-0.27160697297075	0.964285802560383
2016800000	-0.267154267958817	0.96556974701649
2017600000	-0.263393394327944	0.96602613454869
2018400000	-0.259282927411582	0.967591178004758
2019200000	-0.255546553050342	0.968624435611235
2020000000	-0.251643208573154	0.969440711690554
2020800000	-0.247313576851232	0.9700955454486
2021600000	-0.242914980176413	0.971880624731867
2022400000	-0.239920728956259	0.971348557522801
2023200000	-0.235589389072041	0.972496795432111
2024000000	-0.231342518441716	0.97402265051225
2024800000	-0.228144173605017	0.975091275904307
2025600000	-0.223004217884815	0.975427065963555
2026400000	-0.219130775416113	0.977020231826443
2027200000	-0.215297351495235	0.977216517432274
2028000000	-0.211193527854596	0.97731917754285
2028800000	-0.206391175947515	0.979046802442821
2029600000	-0.20233191570082	0.979387109547775
2030400000	-0.198236237096533	0.980183018144703
2031200000	-0.194688203989246	0.980688078583517
2032000000	-0.190415157566512	0.980157139481721
2032800000	-0.185510134711863	0.980989600560623
2033600000	-0.180290330318373	0.981359759628233
2034400000	-0.177584576782699	0.981455851782088
2035200000	-0.171916710161943	0.981974232886878
2036000000	-0.168663742450721	0.981350355954077
2036800000	-0.163347725617317	0.982683833269393
2037600000	-0.15876409946758	0.98239560411145
2038400000	-0.154189556848092	0.983359875667106
2039200000	-0.149446149858955	0.984396120752358
2040000000	-0.144563248196014	0.984965620355268
2040800000	-0.141241239678107	0.984326778216784
2041600000	-0.135187269186683	0.983226991830428
2042400000	-0.130888973989405	0.985222086562714
2043200000	-0.126314538989277	0.98491362580492
2044000000	-0.121381543104799	0.985832002747329
2044800000	-0.116545818673397	0.986064332517282
2045600000	-0.111276087546719	0.985311967209354
2046400000	-0.106672408489588	0.986852157578544
2047200000	-0.102356658664525	0.987103522992809
2048000000	-0.0968775721819793	0.987239216228703
2048800000	-0.0913611769938153	0.987333503904739
2049600000	-0.0868811679072323	0.986956134572467
2050400000	-0.0819470034012872	0.987561422176551
2051200000	-0.0767933031345941	0.987458956810108
2052000000	-0.0712061335608053	0.987127861026231
2052800000	-0.0666254335403441	0.987695251847211
2053600000	-0.0614785582510199	0.986558409301316
2054400000	-0.0566515392841821	0.987772682844854
2055200000	-0.0500591257588956	0.986527783334415
2056000000	-0.0463913863090239	0.986777855102689
2056800000	-0.0406588395354393	0.987416018898084
2057600000	-0.0354174290652803	0.986526394519826
2058400000	-0.0291011715246799	0.986307076812609
2059200000	-0.0239779742983785	0.986145282167258
2060000000	-0.0194934521137164	0.985007633235738
2060800000	-0.0143382315509824	0.984910070469817
2061600000	-0.00920225670713262	0.985713969201853
2062400000	-0.00368042220440428	0.985047095353599
2063200000	0.00259210883013512	0.984676505552674
2064000000	0.00772593175983045	0.984309906421485
2064800000	0.0134994875070983	0.98328960313479
2065600000	0.018384176889446	0.983226743817493
2066400000	0.0246111252339782	0.982616648080562
2067200000	0.0298748165205942	0.982686547546905
2068000000	0.0353834494387456	0.981297384507263
2068800000	0.0413270695138978	0.980780755852962
2069600000	0.0470040553242457	0.9805149093417
2070400000	0.0529452360551871	0.979756220065604
2071200000	0.0590270877870209	0.979064824151296
2072000000	0.0651137850867996	0.978732053095456
2072800000	0.071247333438436	0.977797211210449
2073600000	0.0767534422803016	0.977039438836834
2074400000	0.0834112998153876	0.976326415984829
2075200000	0.0892429209503217	0.975333981165051
2076000000	0.095250643744349	0.974685858988456
2076800000	0.101168958334874	0.974000677469301
2077600000	0.10766179167525	0.972517607945925
2078400000	0.113978829050015	0.971879966504668
2079200000	0.11979652081288	0.970592877691038
2080000000	0.127196173660345	0.969550051930717
2080800000	0.133200866650751	0.968493128800433
2081600000	0.140193951511907	0.967195482605368
2082400000	0.145509164900591	0.965586486053657
2083200000	0.15185403831229	0.964078825035143
2084000000	0.158181781148094	0.96325181149873
2084800000	0.164893440751002	0.961635932676652
2085600000	0.170841458455266	0.960265181196381
2086400000	0.177861882249507	0.958906236450318
2087200000	0.184001243252335	0.957409971160905
2088000000	0.190357859310837	0.955954350888073
2088800000	0.197422386478777	0.954388482105585
2089600000	0.2033608869649	0.952560761048284
2090400000	0.209824424288804	0.950953128100104
2091200000	0.21632828877399	0.948945165459339
2092000000	0.223289268126464	0.947635390536139
2092800000	0.230200917948471	0.945331226819291
2093600000	0.236045288962537	0.943459594438473
2094400000	0.243108946163339	0.941766871502026
2095200000	0.249289066312442	0.939339605211841
2096000000	0.257192911788596	0.938629566590801
2096800000	0.263429536566921	0.936381758184464
2097600000	0.271160489047149	0.933771147595508
2098400000	0.278770532582925	0.931427068748543
2099200000	0.28548530785203	0.928762019359042
2100000000	0.291915990325929	0.926097505419783
2100800000	0.298734818327509	0.924332142400786
2101600000	0.305188971642133	0.921775764835973
2102400000	0.311462381657034	0.918981618434508
2103200000	0.317694329626195	0.9169212955244
2104000000	0.323337336358229	0.914041596738791
2104800000	0.329339908226038	0.911149920621694
2105600000	0.335151437612197	0.908353698293444
2106400000	0.342419401027416	0.905396140687931
2107200000	0.348759358369755	0.902597081965378
2108000000	0.355484879696996	0.900049830841691
2108800000	0.361885257964119	0.896341564938203
2109600000	0.368912305672081	0.89351061951541
2110400000	0.37511403961973	0.890524724120579
2111200000	0.382079829205045	0.887917260955277
2112000000	0.388917826307705	0.883680461244395
2112800000	0.395508015659564	0.879748148029848
2113600000	0.402158087460648	0.876634172761013
2114400000	0.408804132671316	0.873803630057957
2115200000	0.415514976193026	0.869659617765398
2116000000	0.421615727802142	0.866178196531108
2116800000	0.428992141036468	0.862389503806989
2117600000	0.435695415814075	0.858947688777435
2118400000	0.441781177088345	0.85508932045546
2119200000	0.448233146010017	0.85073880044462
2120000000	0.455186603795757	0.847568648072588
2120800000	0.462090134384855	0.843791604619213
2121600000	0.469070628311575	0.839451913567409
2122400000	0.475115773636942	0.835067470448279
2123200000	0.480987431668085	0.830762682773585
2124000000	0.487892484159986	0.826609384857614
2124800000	0.493910987090195	0.82276097406541
2125600000	0.501053358597293	0.817784904937665
2126400000	0.506810128727176	0.813453059531456
2127200000	0.513635114122586	0.80894855415845
2128000000	0.519272348378532	0.805194655461389
2128800000	0.525393339643919	0.800198413004353
2129600000	0.531637687852455	0.795644915929618
2130400000	0.538485438053509	0.790785087138934
2131200000	0.54422966672594	0.786473229116271
2132000000	0.550625092342303	0.781461240913481
2132800000	0.556780299440613	0.776621916760401
2133600000	0.562574964889695	0.771389156520486
2134400000	0.569196669987845	0.767173800003082
2135200000	0.574484347891768	0.761402053279978
2136000000	0.580440054254815	0.756425939059485
2136800000	0.586481889994775	0.750715944039061
2137600000	0.59313458150716	0.745488156371926
2138400000	0.598779914123026	0.740728346781289
2139200000	0.603908008663954	0.734561086629406
2140000000	0.610258952822957	0.728921418548408
2140800000	0.615641442708553	0.723588083900723
2141600000	0.620997522301548	0.716415224991279
2142400000	0.627173350258717	0.7115667934943
2143200000	0.632643348401095	0.706111041314634
2144000000	0.638595800006373	0.698845230667623
2144800000	0.643633368819957	0.693327707204562
2145600000	0.649093661037101	0.687410951063458
2146400000	0.654671779536091	0.681592146224023
2147200000	0.659526305725764	0.675095321606492
2148000000	0.665720973800091	0.668595963238454
2148800000	0.670565189543497	0.662640987092986
2149600000	0.67565132141141	0.655934987571356
2150400000	0.681253024115833	0.649671205868295
2151200000	0.686086139789934	0.642761825679566
2152000000	0.691298043713869	0.6368815114744
2152800000	0.696629354449655	0.62950354439137
2153600000	0.700879666103771	0.623868919680666
2154400000	0.706934226589779	0.617909005820831
2155200000	0.71107329318627	0.609502589049237
2156000000	0.716565445346755	0.603306353969928
2156800000	0.721003844309513	0.596171255167021
2157600000	0.726340770679116	0.588806294275767
2158400000	0.730199820929312	0.581630874414746
2159200000	0.736003759680273	0.5741829777536
2160000000	0.740463291831356	0.567904344196009
2160800000	0.746247019451635	0.560592055770371
2161600000	0.751962036187914	0.553617760081677
2162400000	0.75493447301555	0.545855144568024
2163200000	0.759520092963119	0.5381958128401
2164000000	0.763544875192091	0.531014081702263
2164800000	0.767856375824871	0.523689600822874
2165600000	0.772986477681173	0.51618901085513
2166400000	0.777150013513255	0.507799328989996
2167200000	0.781129550976877	0.499802682371892
2168000000	0.784714672509789	0.492872572133949
2168800000	0.788674384739025	0.483744877200542
2169600000	0.793652030331975	0.47595380251803
2170400000	0.798131321116408	0.467885759196607
2171200000	0.801661471711749	0.460147093285405
2172000000	0.805795007315585	0.452112358023713
2172800000	0.808494667567486	0.44322373520302
2173600000	0.813771107694003	0.435149425387221
2174400000	0.817507090210346	0.425164849152687
2175200000	0.820249771529928	0.417674355995311
2176000000	0.823531670515587	0.408952346904213
2176800000	0.827681613320722	0.400347680034346
2177600000	0.831089411302857	0.391052110686633
2178400000	0.833939261490903	0.383169209471829
2179200000	0.837278006794779	0.373776203496508
2180000000	0.840154526015434	0.365189499107228
2180800000	0.844286856606831	0.355849959118818
2181600000	0.847146536897184	0.34652820563875
2182400000	0.849856725806077	0.338182413919118
2183200000	0.852659782472195	0.328229048890699
2184000000	0.855830291169322	0.319490390171358
2184800000	0.858579304593296	0.309070877848348
2185600000	0.861299727641005	0.300164964235282
2186400000	0.863847058738669	0.290669389505035
2187200000	0.866034062955048	0.281417303764857
2188000000	0.868266236037653	0.271042695943754
2188800000	0.87091647974694	0.261544015915481
2189600000	0.872582125703351	0.252237065885203
2190400000	0.87490680964182	0.241636460437498
2191200000	0.877440070640951	0.232062634431972
2192000000	0.87928710339993	0.221694971143799
2192800000	0.879901541376929	0.211752926574072
2193600000	0.881799133306312	0.20154731628383
2194400000	0.884559220823645	0.191249489059247
2195200000	0.885453193084825	0.180632566944583
2196000000	0.886794009724915	0.170950899663685
2196800000	0.887901027201218	0.160398036037006
2197600000	0.888975039507741	0.149649833261219
2198400000	0.890803789750405	0.139644366096239
2199200000	0.891099649178328	0.129343359946202
2200000000	0.891849871571544	0.118933329236816
2200800000	0.892784510179055	0.107998663655365
2201600000	0.89302668698715	0.0979776010533271
2202400000	0.893758245367024	0.0866460017178964
2203200000	0.89370296179251	0.0760552044132353
2204000000	0.893256365188697	0.0651234613224929
2204800000	0.89284225939633	0.0541425037831945
2205600000	0.892771120015507	0.0432945666780696
2206400000	0.892567434503495	0.032491890030491
2207200000	0.89115137466793	0.0212788676379814
2208000000	0.890494981142023	0.0103709900014215
2208800000	0.889621049040556	-0.00101551879240008
2209600000	0.88767615156464	-0.0122072275924586
2210400000	0.886882994533753	-0.0235007342449156
2211200000	0.885041349309622	-0.0347424015450053
2212000000	0.883070652837678	-0.0461707867239412
2212800000	0.881226698087083	-0.0574486658275016
2213600000	0.879589114363798	-0.0692261497453561
2214400000	0.876743444203109	-0.0803590455448595
2215200000	0.87430899957258	-0.0917902274047984
2216000000	0.871146911136127	-0.103112477423746
2216800000	0.868976046190606	-0.115064459377374
2217600000	0.866165055737471	-0.126806829178615
2218400000	0.862687286853689	-0.138382080939263
2219200000	0.859133422356641	-0.149602808668864
2220000000	0.85612642316827	-0.16094559761689
2220800000	0.851876662605494	-0.17276287634908
2221600000	0.848640134615401	-0.184461096015589
2222400000	0.844447429363119	-0.195212243915403
2223200000	0.840313928985034	-0.207027650029583
2224000000	0.835563526264508	-0.219191472174834
2224800000	0.83123057427274	-0.230277663534231
2225600000	0.825763377601819	-0.241304824453662
2226400000	0.821376873848812	-0.253239511992229
2227200000	0.816797931440202	-0.264407916867741
2228000000	0.810802097245101	-0.275560199920155
2228800000	0.805466113105383	-0.2871341499992
2229600000	0.799584043945444	-0.298688432087444
2230400000	0.793794800233924	-0.310010664142522
2231200000	0.787456507302171	-0.32104047070286
2232000000	0.781004333607032	-0.332188532377984
2232800000	0.774518233373316	-0.342934772338203
2233600000	0.768229724808549	-0.35378526816249
2234400000	0.761026125651112	-0.364892196550009
2235200000	0.753983206231261	-0.375132872562152
2236000000	0.746840406914702	-0.386307108116039
2236800000	0.739525569854962	-0.396779208163416
2237600000	0.731487028447806	-0.406728900952784
2238400000	0.723563162127975	-0.417194742202194
2239200000	0.715762486236061	-0.427577482452411
2240000000	0.707085222702413	-0.437828987811268
2240800000	0.69969969691338	-0.446937471722762
2241600000	0.692548716104431	-0.456140642263178
2242400000	0.683201353619286	-0.46658616044984
2243200000	0.673971450447241	-0.476755752944023
2244000000	0.66525057493971	-0.48630251311563
2244800000	0.655904221551008	-0.495099848154117
2245600000	0.647233803273817	-0.503900698711184
2246400000	0.637506417239534	-0.514116667742248
2247200000	0.627415905258083	-0.522665724923913
2248000000	0.618029492558572	-0.531263034473957
2248800000	0.608064039622589	-0.540321273899013
2249600000	0.597716665138936	-0.548441512367542
2250400000	0.587831983510655	-0.556970694345511
2251200000	0.57803312009908	-0.564705222754626
2252000000	0.567512704357903	-0.572649970781418
2252800000	0.556905383701062	-0.581334738969755
2253600000	0.545790590949954	-0.588897627871036
2254400000	0.534996390185946	-0.596385345211882
2255200000	0.524244522809766	-0.603982059178881
2256000000	0.512898733586215	-0.611115463306875
2256800000	0.502253278747714	-0.618379209444475
2257600000	0.49065796426384	-0.625541154437881
2258400000	0.478521846443848	-0.631434811998336
2259200000	0.46731038090068	-0.638697698660823
2260000000	0.455372545668844	-0.644449972389872
2260800000	0.443669406435757	-0.650277166484692
2261600000	0.430903708529057	-0.655271048498075
2262400000	0.419563923524712	-0.661812114158974
2263200000	0.407589936196638	-0.667738768102222
2264000000	0.395651052212128	-0.672679152199493
2264800000	0.382803662597313	-0.677064454196717
2265600000	0.370655036527788	-0.681917538624254
2266400000	0.358577508729396	-0.686437996899811
2267200000	0.346034700466853	-0.690518925055633
2268000000	0.333674904281832	-0.694973851630417
2268800000	0.321158388469912	-0.698242838643864
2269600000	0.308700230146979	-0.701915236471325
2270400000	0.295868760653184	-0.705300014101687
2271200000	0.282836469565216	-0.708265929106289
2272000000	0.270610605275325	-0.711267425065251
2272800000	0.258039273529173	-0.713803484957765
2273600000	0.245680877998185	-0.716128284383199
2274400000	0.232895101364016	-0.718476969409249
2275200000	0.220487671739931	-0.720648126563842
2276000000	0.207372788448443	-0.722710551701679
2276800000	0.194567851935207	-0.724403106055948
2277600000	0.181721211121746	-0.725925097267544
2278400000	0.169512996216975	-0.726995516681365
2279200000	0.156565612316841	-0.728192299805215
2280000000	0.143943467770069	-0.728739342222683
2280800000	0.13096207422551	-0.72934104678553
2281600000	0.118453525103263	-0.729719935693279
2282400000	0.105279101866532	-0.729841717277832
2283200000	0.0929481525256683	-0.72958440214989
2284000000	0.0798492782771278	-0.728992168376082
2284800000	0.0674324108218435	-0.728455709921415
2285600000	0.0546913226009391	-0.727379315658376
2286400000	0.0419817482339444	-0.726136804452139
2287200000	0.0294634620182097	-0.724424493770945
2288000000	0.0171940823796101	-0.72268549488583
2288800000	0.00504392659144256	-0.720325643711542
2289600000	-0.00719969649895542	-0.718182821649128
2290400000	-0.0194954278412422	-0.715679733167544
2291200000	-0.0309719343938955	-0.712967173693367
2292000000	-0.0429652077288545	-0.709849693646962
2292800000	-0.0546978429998544	-0.706772138759218
2293600000	-0.0665145541660743	-0.703528730091516
2294400000	-0.0780495821720883	-0.700118423999588
2295200000	-0.0895643931381194	-0.696296411145197
2296000000	-0.100547537920586	-0.692195605580558
2296800000	-0.111573776886994	-0.687605214375322
2297600000	-0.122859109895718	-0.683492691487494
2298400000	-0.134066782809252	-0.67880045035555
2299200000	-0.144748964648316	-0.674072906861152
2300000000	-0.155065864475673	-0.668519008914652
2300800000	-0.165336095472529	-0.662609547856699
2301600000	-0.175398397573023	-0.657227320594367
2302400000	-0.185593147180771	-0.651395366197497
2303200000	-0.195331827494713	-0.645190176827309
2304000000	-0.204129140174401	-0.639412470122863
2304800000	-0.213567694065321	-0.633057885086171
2305600000	-0.222326545548895	-0.626474954857716
2306400000	-0.231214912862551	-0.620404333971737
2307200000	-0.239914971564617	-0.613541182148931
2308000000	-0.247730438669544	-0.606629848365514
2308800000	-0.256389921189015	-0.599591658968875
2309600000	-0.264248317314583	-0.592865935484422
2310400000	-0.271623215489553	-0.585594573113093
2311200000	-0.278974184426669	-0.578669536191609
2312000000	-0.286532186597742	-0.571587007832277
2312800000	-0.294275764399527	-0.5639247246515
2313600000	-0.300566760152727	-0.556880855537981
2314400000	-0.30770650108411	-0.549420765565916
2315200000	-0.314136483985523	-0.541984819926568
2316000000	-0.320359246179749	-0.534637446617723
2316800000	-0.326691557356147	-0.527201629198082
2317600000	-0.332456265978341	-0.519935940059426
2318400000	-0.338476054462247	-0.512191729686771
2319200000	-0.344265423469935	-0.505167582846645
2320000000	-0.349597166080183	-0.49720112139324
2320800000	-0.355365475196511	-0.490136691087641
2321600000	-0.360639282291577	-0.482407571943447
2322400000	-0.36620693554186	-0.47485405515146
2323200000	-0.371810797856991	-0.467323353869974
2324000000	-0.377051933281709	-0.459776814851731
2324800000	-0.382242885529926	-0.451986955459607
