!Agilent N9923A: A.05.17
!Date: Sunday, 01 January 2006 12:11:29
!Model: N9923A
!Serial: MY50371189
!CHECKSUM:0796784445
!Correction: S11(ON U)
!S1P File: Measurement: S11:
# Hz S DB R 50
2000000000	-2.20776382623728	7.53138398056583
2000800000	-2.21022624631397	7.24519844410672
2001600000	-2.22401354205921	7.01631576686776
2002400000	-2.22043781460016	6.72078125118796
2003200000	-2.22633699121819	6.4670310337185
2004000000	-2.22465917408627	6.19662794090181
2004800000	-2.23455723022934	5.95280593523802
2005600000	-2.22948131179403	5.69556606088905
2006400000	-2.2381394477681	5.45090814656269
2007200000	-2.23843129061791	5.1377745778556
2008000000	-2.24886948112008	4.85988542293577
2008800000	-2.25193333224617	4.62265999412071
2009600000	-2.25376013774874	4.35894790894834
2010400000	-2.26054816822793	4.09884458434308
2011200000	-2.26863225079468	3.85358651837511
2012000000	-2.27004089736367	3.57455071479222
2012800000	-2.28172776124358	3.27352771158838
2013600000	-2.27977016982138	2.95148681460856
2014400000	-2.29095547125796	2.65862852336273
2015200000	-2.29502438162577	2.43558901040667
2016000000	-2.30056572053536	2.20208744540207
2016800000	-2.30054606658256	1.89702207191893
2017600000	-2.3119075999805	1.63277253998513
2018400000	-2.30500438770911	1.33238139836071
2019200000	-2.31989508445695	1.08505796060218
2020000000	-2.32147997847778	0.754934221797794
2020800000	-2.32750349970861	0.435303801936082
2021600000	-2.32907804255103	0.163238124278695
2022400000	-2.34659945718513	-0.0870915010841593
2023200000	-2.3431131675168	-0.370387015092583
2024000000	-2.35316429748066	-0.67324679260469
2024800000	-2.3538061463342	-0.946432207299595
2025600000	-2.36570444624168	-1.2374531603494
2026400000	-2.36606012424421	-1.54175098073721
2027200000	-2.37250305647422	-1.84253529242032
2028000000	-2.38025672582966	-2.11395201843543
2028800000	-2.38456089420599	-2.42391395006859
2029600000	-2.39188520855406	-2.72614297783074
2030400000	-2.39976392776821	-3.01678568834818
2031200000	-2.40249761196067	-3.31398558438452
2032000000	-2.4102886355592	-3.61660789240468
2032800000	-2.41972022277405	-3.9139598313937
2033600000	-2.42431288113317	-4.24904315271545
2034400000	-2.43225302723618	-4.49899330721142
2035200000	-2.43201033572051	-4.81036754925585
2036000000	-2.44640059451901	-5.10073649773515
2036800000	-2.4499097117179	-5.39570014913922
2037600000	-2.4637262280942	-5.68226168061702
2038400000	-2.46465221285006	-6.00542215611032
2039200000	-2.47423080428365	-6.26789880352282
2040000000	-2.47999939925948	-6.58627742072038
2040800000	-2.48879283574532	-6.89409922774893
2041600000	-2.50065484114044	-7.1606505046127
2042400000	-2.50422082312833	-7.47053308478449
2043200000	-2.50824870129569	-7.77958499701376
2044000000	-2.52189962969798	-8.08264893669306
2044800000	-2.5231000668668	-8.39677882699047
2045600000	-2.53781838039709	-8.68991846360481
2046400000	-2.54295030637819	-8.97263940938604
2047200000	-2.54890123557376	-9.2585944799752
2048000000	-2.55946135938812	-9.51246582496622
2048800000	-2.5654363063529	-9.82315056033472
2049600000	-2.57107437790252	-10.0846648846719
2050400000	-2.57486753108544	-10.4028379002778
2051200000	-2.5830038642886	-10.7127544048941
2052000000	-2.59800640998869	-11.0142348418192
2052800000	-2.59870544726058	-11.2972772390903
2053600000	-2.61013900438608	-11.6001587329902
2054400000	-2.62131789718278	-11.9158037268152
2055200000	-2.6303863305125	-12.2084913773836
2056000000	-2.63030168931515	-12.4755957529866
2056800000	-2.64223367454946	-12.7822345347156
2057600000	-2.65239356114439	-13.0691494031329
2058400000	-2.662842762736	-13.3938964253277
2059200000	-2.66737561095294	-13.6905912153284
2060000000	-2.67926320808523	-13.9561333093637
2060800000	-2.6919439939543	-14.2563000205524
2061600000	-2.69907087647107	-14.593218256377
2062400000	-2.70433738586329	-14.8412225451741
2063200000	-2.71764087588937	-15.1487191146901
2064000000	-2.72631861237159	-15.4535132719168
2064800000	-2.73930866664379	-15.730455554801
2065600000	-2.74892569954396	-16.024006428445
2066400000	-2.75897186940088	-16.3405562787119
2067200000	-2.76787057784708	-16.5965794510688
2068000000	-2.78115298313304	-16.8819934727335
2068800000	-2.7911341275834	-17.1700155669223
2069600000	-2.80264702683128	-17.4592816796257
2070400000	-2.8145159499648	-17.7561345492494
2071200000	-2.82406373597103	-18.0531496088747
2072000000	-2.83930914038894	-18.3437493614121
2072800000	-2.85046507490348	-18.6227456236804
2073600000	-2.86165023703885	-18.8741662975037
2074400000	-2.86991322295328	-19.1727097414289
2075200000	-2.88885498601272	-19.4612925309199
2076000000	-2.89480466326205	-19.7351069042219
2076800000	-2.90826973171197	-20.006181202996
2077600000	-2.92681239017433	-20.2894150304484
2078400000	-2.93446977244819	-20.5475136619908
2079200000	-2.94714834177225	-20.8234685115432
2080000000	-2.95982654482349	-21.1105773735122
2080800000	-2.9717159424048	-21.3649571991513
2081600000	-2.98397965773934	-21.6547879283761
2082400000	-3.00382589081045	-21.8874571981428
2083200000	-3.01547965982351	-22.1415809178764
2084000000	-3.02661458687817	-22.4004873228648
2084800000	-3.03687683689832	-22.6764819484221
2085600000	-3.05596175716329	-22.9055952812734
2086400000	-3.06695090855334	-23.1858405421194
2087200000	-3.08095360626888	-23.419959615367
2088000000	-3.09452052148608	-23.6530172646054
2088800000	-3.10571320736849	-23.9388355065374
2089600000	-3.12074432969809	-24.1724647479519
2090400000	-3.13085779841669	-24.4177281034207
2091200000	-3.14495629430292	-24.668605533307
2092000000	-3.15914096927835	-24.9179220900999
2092800000	-3.17625619505403	-25.1865721824925
2093600000	-3.18388458794884	-25.3960167241984
2094400000	-3.20282021100292	-25.661980821749
2095200000	-3.2188327182227	-25.8875779235474
2096000000	-3.22480976938606	-26.1664714741858
2096800000	-3.24188574724996	-26.3962551688608
2097600000	-3.2589350363045	-26.6330762207701
2098400000	-3.27352135914781	-26.8551060994274
2099200000	-3.29029509304909	-27.1110495764349
2100000000	-3.30134363198118	-27.3555144110054
2100800000	-3.31578382119435	-27.5646220898734
2101600000	-3.33234441185374	-27.789130121426
2102400000	-3.34904819914147	-28.0385794245219
2103200000	-3.357565226529	-28.2177299440302
2104000000	-3.3753805791084	-28.460739115026
2104800000	-3.39508946187754	-28.6011730044148
2105600000	-3.41213629681432	-28.816193057913
2106400000	-3.43474661775856	-29.0114982660964
2107200000	-3.44160289468599	-29.2876789273382
2108000000	-3.4499907200393	-29.4488024841227
2108800000	-3.4767537091226	-29.6496215095024
2109600000	-3.48800227299167	-29.878107081519
2110400000	-3.50514740612201	-30.0499893130385
2111200000	-3.51804977865833	-30.2657660969228
2112000000	-3.53943048617838	-30.5167122107534
2112800000	-3.56060988976723	-30.7334580789015
2113600000	-3.58426213405709	-30.9335208392112
2114400000	-3.58516456497399	-31.0834575014224
2115200000	-3.6040513990289	-31.3644926891183
2116000000	-3.61875750332006	-31.4835085503014
2116800000	-3.63935873061032	-31.6949880898237
2117600000	-3.65058216920035	-31.8930968005767
2118400000	-3.67125448199302	-32.1074524286519
2119200000	-3.68808217263004	-32.2533797059659
2120000000	-3.69773379005571	-32.4677362844833
2120800000	-3.71467505631435	-32.7052762880994
2121600000	-3.74183059226972	-32.8535333224209
2122400000	-3.75644995508439	-33.0558870052483
2123200000	-3.76418579699126	-33.2460183917335
2124000000	-3.78313285205195	-33.4303083832731
2124800000	-3.79926009706556	-33.6310466771821
2125600000	-3.82156715130822	-33.8380980608478
2126400000	-3.83515824733631	-33.9528056372408
2127200000	-3.86134205107903	-34.1891082484275
2128000000	-3.87944542340283	-34.3167260369535
2128800000	-3.8842319931571	-34.5103158565747
2129600000	-3.90908027084483	-34.6842197980528
2130400000	-3.92526688790724	-34.9083096468002
2131200000	-3.95268507629281	-35.0697822741328
2132000000	-3.95877543592454	-35.2064824149907
2132800000	-3.97802494424221	-35.4063250697412
2133600000	-3.99528254207674	-35.5794127242397
2134400000	-4.01640883490956	-35.7011003804253
2135200000	-4.03373813543881	-35.9389394096402
2136000000	-4.05402755225351	-36.0550544980061
2136800000	-4.0656224055337	-36.2162846514886
2137600000	-4.08304201196081	-36.4098004614539
2138400000	-4.10516423501207	-36.6065594518816
2139200000	-4.12248064950099	-36.7331940176461
2140000000	-4.13989629862543	-36.9264384220771
2140800000	-4.16084634413072	-37.0811002042707
2141600000	-4.18324459376431	-37.326074481594
2142400000	-4.18793234500347	-37.4008465499521
2143200000	-4.21030146685009	-37.5615561351422
2144000000	-4.22390883663588	-37.7685270885157
2144800000	-4.24566851028231	-37.8996803991673
2145600000	-4.26468753237158	-38.105903328268
2146400000	-4.28383736777389	-38.2161285039981
2147200000	-4.29606191804656	-38.4071900083283
2148000000	-4.3136811478391	-38.587496623386
2148800000	-4.33210047332935	-38.7279210361714
2149600000	-4.34650729130977	-38.9018734837329
2150400000	-4.36706370259943	-39.0696980715282
2151200000	-4.38511975874946	-39.2365074099015
2152000000	-4.40105420074601	-39.3677723113448
2152800000	-4.41853157426481	-39.5423935122299
2153600000	-4.43091684247712	-39.6934612192665
2154400000	-4.45453349322815	-39.8525267647357
2155200000	-4.47002116301031	-40.0314587163798
2156000000	-4.48493754041309	-40.1796692024224
2156800000	-4.50055444451982	-40.3339439601437
2157600000	-4.51895468976022	-40.5065112739766
2158400000	-4.53961169373353	-40.6503562375753
2159200000	-4.55396487689926	-40.8194986894185
2160000000	-4.57033922609848	-40.9771241908739
2160800000	-4.58633892677087	-41.1190262708926
2161600000	-4.59808335495067	-41.3021185605512
2162400000	-4.61720483510523	-41.4196511013416
2163200000	-4.63241722876922	-41.5773641169244
2164000000	-4.65004379257557	-41.7230403479143
2164800000	-4.66396306404505	-41.8798937908777
2165600000	-4.67825435385747	-42.0388343046907
2166400000	-4.69523823337596	-42.2075331360295
2167200000	-4.71038200379929	-42.3671393626575
2168000000	-4.72670729123214	-42.4854198048029
2168800000	-4.74090257426119	-42.6931204391657
2169600000	-4.75325025305843	-42.8458610447353
2170400000	-4.7681064451471	-42.999374086077
2171200000	-4.78833729341949	-43.1620292030992
2172000000	-4.80200215949561	-43.322859138081
2172800000	-4.8184694432386	-43.4773833096535
2173600000	-4.8297694901085	-43.6503720391224
2174400000	-4.84909569296059	-43.8280903288882
2175200000	-4.86707212204544	-43.9715822554379
2176000000	-4.8814280548956	-44.1646366643782
2176800000	-4.89400289499695	-44.3200877751197
2177600000	-4.90763161741907	-44.4863600455842
2178400000	-4.92634893744093	-44.6434213356775
2179200000	-4.94039096646436	-44.7882308042679
2180000000	-4.96074695498173	-44.951427687936
2180800000	-4.9755818128173	-45.1275051095784
2181600000	-4.98859202110055	-45.2792138066854
2182400000	-5.0053541614083	-45.407402511727
2183200000	-5.02030539824788	-45.6164146122267
2184000000	-5.03345311820804	-45.7455638875597
2184800000	-5.04750294698908	-45.9387116575014
2185600000	-5.06507509902454	-46.0915183887377
2186400000	-5.07533219265435	-46.2239230250281
2187200000	-5.09400187788187	-46.3919080681077
2188000000	-5.10466799047899	-46.574326575957
2188800000	-5.11779272390706	-46.7076967046464
2189600000	-5.13423444540592	-46.9237349951959
2190400000	-5.13969222284142	-47.1052886154691
2191200000	-5.15248191071605	-47.240677191007
2192000000	-5.16515324136376	-47.4447575186347
2192800000	-5.18399381548794	-47.5898301685306
2193600000	-5.19517595613255	-47.8103425109087
2194400000	-5.20170020345676	-47.9403343556229
2195200000	-5.21503866580188	-48.1528846552507
2196000000	-5.22857538852156	-48.3021690700873
2196800000	-5.24225116031273	-48.4828171235174
2197600000	-5.25574198199226	-48.6908700604939
2198400000	-5.2686541190843	-48.8487482915375
2199200000	-5.28108300218228	-49.0227328234649
2200000000	-5.29664945486668	-49.2111863550836
2200800000	-5.30803864374379	-49.4226105853813
2201600000	-5.33013083089635	-49.6032727128222
2202400000	-5.33539785730568	-49.7869853285055
2203200000	-5.35530958436087	-49.9880260302014
2204000000	-5.3686318566573	-50.194179575308
2204800000	-5.38583852969794	-50.4058957070901
2205600000	-5.40026472242391	-50.5870381643399
2206400000	-5.41346989633449	-50.7550124352461
2207200000	-5.43399758667826	-50.9880112984334
2208000000	-5.44930034805556	-51.1942329982673
2208800000	-5.46660646367299	-51.3826498628011
2209600000	-5.4828826082177	-51.6001848637822
2210400000	-5.49578777320451	-51.7989242306653
2211200000	-5.5126573130525	-52.0319791528544
2212000000	-5.53388256053379	-52.2376838002459
2212800000	-5.54991447028098	-52.451367978104
2213600000	-5.56550452998492	-52.6289023775503
2214400000	-5.57540788151111	-52.8630778303219
2215200000	-5.59325156276751	-53.0700989486313
2216000000	-5.60807016085008	-53.2847366956953
2216800000	-5.62236303789665	-53.4872183827812
2217600000	-5.63497742641341	-53.705826610761
2218400000	-5.64649269677412	-53.917849848931
2219200000	-5.66192070519651	-54.1525375730623
2220000000	-5.67938388334328	-54.3423538751959
2220800000	-5.69055568206104	-54.5857637929995
2221600000	-5.70966485882079	-54.810717878262
2222400000	-5.72381806462046	-55.0044703517615
2223200000	-5.73626351167032	-55.2391700685695
2224000000	-5.73786108721819	-55.5072572468685
2224800000	-5.75175641432167	-55.6636756359957
2225600000	-5.77436017005018	-55.9089551244222
2226400000	-5.78530687751719	-56.158350462475
2227200000	-5.80121161055067	-56.3737411826395
2228000000	-5.8155871197185	-56.5910762010036
2228800000	-5.83592731120304	-56.8282741522192
2229600000	-5.84658790335968	-57.0937173872965
2230400000	-5.85909148610312	-57.3087358561249
2231200000	-5.86728500271618	-57.5367439945564
2232000000	-5.88915189147243	-57.7620172099752
2232800000	-5.90770985694603	-57.964708731809
2233600000	-5.92856592439992	-58.2218718888419
2234400000	-5.94879653283261	-58.3689417863836
2235200000	-5.95446992455446	-58.6804705519878
2236000000	-5.97561014084248	-58.8698365072262
2236800000	-5.98695329142483	-59.1057968711881
2237600000	-6.00705368771408	-59.3190234774912
2238400000	-6.02618829704855	-59.5283812915737
2239200000	-6.03301208858975	-59.707219931603
2240000000	-6.06423797252382	-60.0010115947265
2240800000	-6.0634913165828	-60.1619713017649
2241600000	-6.06941136668552	-60.3142174468178
2242400000	-6.08252679852392	-60.6237152068067
2243200000	-6.10018174403105	-60.8706004131711
2244000000	-6.12142513451976	-61.0689440007325
2244800000	-6.13404226342755	-61.2948374923357
2245600000	-6.14803645699755	-61.4829171698206
2246400000	-6.1564672340604	-61.7419246099271
2247200000	-6.17281825264328	-62.0266935293613
2248000000	-6.19344101291163	-62.2151772968569
2248800000	-6.20337234421586	-62.4897246860765
2249600000	-6.21769152504763	-62.6824342349021
2250400000	-6.22895474157679	-62.8856356102183
2251200000	-6.24666606691452	-63.0992532272339
2252000000	-6.25612531530695	-63.3142001912559
2252800000	-6.26399442769782	-63.59261199189
2253600000	-6.28205672408361	-63.7692642351809
2254400000	-6.29603362068345	-64.0377460094156
2255200000	-6.31377751375333	-64.2770960496451
2256000000	-6.31323016694338	-64.4999557043604
2256800000	-6.33178104400118	-64.709289696746
2257600000	-6.34558630466758	-64.9472418966258
2258400000	-6.36505338177873	-65.1683185115183
2259200000	-6.37639737123722	-65.4246264222046
2260000000	-6.38453553636421	-65.6037789267011
2260800000	-6.39610304472004	-65.8085350713167
2261600000	-6.40252239065476	-66.0494463531432
2262400000	-6.42128318981779	-66.2930655778287
2263200000	-6.44302225691797	-66.548752903845
2264000000	-6.45172456566544	-66.7358200657454
2264800000	-6.46859571219236	-66.9615970817489
2265600000	-6.47727484093872	-67.2098365609712
2266400000	-6.48933675252967	-67.423328694555
2267200000	-6.50193747885765	-67.641133931602
2268000000	-6.51175462482932	-67.912608584797
2268800000	-6.52638673958705	-68.1126985244015
2269600000	-6.53906039381205	-68.368408044227
2270400000	-6.54779141465358	-68.6220839721496
2271200000	-6.56615803808686	-68.8763940382803
2272000000	-6.57385211838144	-69.144741317909
2272800000	-6.59030590901334	-69.3565901464543
2273600000	-6.600328329131	-69.5558837498658
2274400000	-6.61301489732837	-69.8510758423146
2275200000	-6.63645751590216	-70.0845868175904
2276000000	-6.65045311037577	-70.3058145407296
2276800000	-6.66598255567676	-70.541719014809
2277600000	-6.67720618722816	-70.8052773988763
2278400000	-6.70014482952741	-71.0094106827371
2279200000	-6.71143040662666	-71.2568707534205
2280000000	-6.72686840195694	-71.4649794442193
2280800000	-6.74109152179003	-71.6909653291687
2281600000	-6.75909315412857	-71.8786591759625
2282400000	-6.77639027865521	-72.1177874283687
2283200000	-6.79077789727499	-72.3401573287475
2284000000	-6.80625308630783	-72.5494027624618
2284800000	-6.8243586034601	-72.7416726562822
2285600000	-6.84342142121605	-72.9643785340283
2286400000	-6.85576967934959	-73.1978061995925
2287200000	-6.87226057923955	-73.4337819172821
2288000000	-6.88943069942423	-73.6344377017256
2288800000	-6.90489011524299	-73.8444612700621
2289600000	-6.91880051644139	-74.0287410102615
2290400000	-6.93638486274401	-74.2161926595049
2291200000	-6.95018515871783	-74.436053870891
2292000000	-6.96646897567876	-74.6354174098375
2292800000	-6.98783222798139	-74.8259189350804
2293600000	-7.00348601606589	-75.0150998777053
2294400000	-7.01653032917449	-75.2247830453177
2295200000	-7.03215433112797	-75.3955992014397
2296000000	-7.04534026480949	-75.5811910198682
2296800000	-7.06218086821142	-75.754150639121
2297600000	-7.07595808483925	-75.9781998915257
2298400000	-7.08941255927606	-76.1971838007478
2299200000	-7.10746876430068	-76.4409264241482
2300000000	-7.12354506617489	-76.5842673977766
2300800000	-7.1455619378394	-76.805264848407
2301600000	-7.16057618099854	-77.0067328125009
2302400000	-7.17468887456981	-77.2448408442677
2303200000	-7.20042797305495	-77.4439608926075
2304000000	-7.22238513564385	-77.6009640443093
2304800000	-7.24906833520906	-77.851909249221
2305600000	-7.27100525539675	-78.0579729429288
2306400000	-7.28970914730866	-78.2219123050413
2307200000	-7.31455951787689	-78.3987917235328
2308000000	-7.33615680233626	-78.5608984656842
2308800000	-7.36257563574365	-78.7415485121088
2309600000	-7.38597286040982	-78.9057446330674
2310400000	-7.40728326163991	-79.0384176665157
2311200000	-7.42928134316973	-79.1846453547836
2312000000	-7.45020826045528	-79.3781738121052
2312800000	-7.47484811748379	-79.5568459848996
2313600000	-7.49397516896657	-79.66051256974
2314400000	-7.51471291455757	-79.8916471165278
2315200000	-7.53917908186536	-80.0486297569661
2316000000	-7.55664046860339	-80.1931741099937
2316800000	-7.58482800576159	-80.3967978247335
2317600000	-7.60557660572566	-80.5582123816311
2318400000	-7.63597080015326	-80.719524963622
2319200000	-7.6495281041878	-80.9110757780264
2320000000	-7.67416808206634	-81.1413592602016
2320800000	-7.69889739067776	-81.3224023831656
2321600000	-7.72651724600146	-81.4576260211613
2322400000	-7.75355849520412	-81.6379726090025
2323200000	-7.78562058749077	-81.8452849646655
2324000000	-7.81417315419646	-82.0393249160439
2324800000	-7.84579912037292	-82.1770696238968
2325600000	-7.87624634291792	-82.3846890504665
2326400000	-7.91132082925289	-82.5525617105112
2327200000	-7.94283811241928	-82.7151210183007
2328000000	-7.97720568901657	-82.8865611393469
2328800000	-8.01029762600873	-83.0283289182509
2329600000	-8.04756950736095	-83.2235191472045
2330400000	-8.08137984645083	-83.3325867887418
2331200000	-8.11162011802461	-83.4990575552313
