!Agilent N9923A: A.05.17
!Date: Sunday, 01 January 2006 12:09:51
!Model: N9923A
!Serial: MY50371189
!CHECKSUM:0690961775
!Correction: S11(ON U)
!S1P File: Measurement: S11:
# Hz S RI R 50
2000000000	0.784886163078804	0.149448042419754
2000800000	0.785552978240751	0.145469759669082
2001600000	0.784937200304047	0.141644074044431
2002400000	0.785752484169157	0.13688163537753
2003200000	0.785901930305052	0.132824330070193
2004000000	0.786191456316983	0.128443335620349
2004800000	0.786249472584195	0.124871139130612
2005600000	0.786671964081935	0.120577968141333
2006400000	0.787208381797428	0.116692266065582
2007200000	0.787118964928518	0.11234406605064
2008000000	0.786626974312748	0.107593779050911
2008800000	0.786867854826031	0.10400011155919
2009600000	0.786740118964705	0.0998354983887817
2010400000	0.787052114485821	0.0950462382204968
2011200000	0.786939360730118	0.0910754300100159
2012000000	0.786712792869782	0.0871869287118325
2012800000	0.786777593321985	0.0830377806227441
2013600000	0.787423527230364	0.0775713414252733
2014400000	0.786958224383012	0.0733135477001379
2015200000	0.786578528192025	0.0694908686490118
2016000000	0.786014185779303	0.0661737469675793
2016800000	0.786465833853156	0.0616860786882958
2017600000	0.785738721638062	0.0573979373081514
2018400000	0.785763798046785	0.0535341408384033
2019200000	0.785208595148339	0.0491610031029196
2020000000	0.785468273914294	0.0446496437705018
2020800000	0.784865092553256	0.0394610465183887
2021600000	0.783483526674954	0.0363069422901621
2022400000	0.784036551027241	0.0323179624966685
2023200000	0.783912058669632	0.0278466935207996
2024000000	0.78311947452077	0.0235179266007737
2024800000	0.782913141727498	0.0191838981433504
2025600000	0.782839862729565	0.0151137936569009
2026400000	0.782481934928158	0.0108264712347435
2027200000	0.782023378739204	0.00658636282950604
2028000000	0.781585054827393	0.00255714668308539
2028800000	0.780899286800453	-0.0020791509349494
2029600000	0.780793509978731	-0.00623646945441276
2030400000	0.780085196067317	-0.0106189123981205
2031200000	0.779780809116105	-0.0149042911057801
2032000000	0.778923614067071	-0.0186573126567437
2032800000	0.778275754904866	-0.0231384912094116
2033600000	0.777536437918483	-0.0280332618292183
2034400000	0.777032672116364	-0.031904179712
2035200000	0.776495230373362	-0.0364924756920495
2036000000	0.775319717881445	-0.0406663865181448
2036800000	0.774794747192834	-0.0448764945022854
2037600000	0.77341784260222	-0.0490595008025037
2038400000	0.773135177595401	-0.0538208173879545
2039200000	0.772220674449258	-0.0577574296339867
2040000000	0.771470384385754	-0.0622394483944622
2040800000	0.77048407332676	-0.0664240546953126
2041600000	0.769298868352242	-0.0702949174402094
2042400000	0.768695270929442	-0.0745878032930335
2043200000	0.76825488988329	-0.0789924989164279
2044000000	0.767062010962242	-0.0833002594518794
2044800000	0.766524183102085	-0.0877431828834895
2045600000	0.765370380069136	-0.0920403365683099
2046400000	0.764596508460162	-0.0959577011096435
2047200000	0.763777939559034	-0.100370234827443
2048000000	0.762185310318564	-0.104700670967364
2048800000	0.761344723174842	-0.109259000668084
2049600000	0.760237068409135	-0.113196802462104
2050400000	0.759447324992519	-0.117565366738449
2051200000	0.758338872539301	-0.121785969446415
2052000000	0.756662782053353	-0.126026646613527
2052800000	0.75607392747742	-0.130167646919196
2053600000	0.754815216157181	-0.134233029234247
2054400000	0.753320070334896	-0.139076422779185
2055200000	0.752108443611886	-0.142600881860392
2056000000	0.751459367710978	-0.146789841410402
2056800000	0.750254571827973	-0.151094299152756
2057600000	0.748546232975831	-0.155069855423435
2058400000	0.747137339502983	-0.15992218157973
2059200000	0.746115760349285	-0.163953269951282
2060000000	0.744499439004296	-0.167828108204692
2060800000	0.743064347546668	-0.172231596724995
2061600000	0.742354499183954	-0.176340020899524
2062400000	0.740989031680599	-0.180528785681449
2063200000	0.738733965476498	-0.18473618968315
2064000000	0.737508577978096	-0.188696449028072
2064800000	0.735418703544664	-0.192495933925348
2065600000	0.73386217092863	-0.196727927154414
2066400000	0.731951229284276	-0.200743952924362
2067200000	0.730508494602555	-0.204924357404255
2068000000	0.728502417301914	-0.208438219651654
2068800000	0.726809789504628	-0.212534725738104
2069600000	0.725234469529389	-0.216401237373531
2070400000	0.722790409300803	-0.219900398443017
2071200000	0.721221105129699	-0.224144478103414
2072000000	0.719505350034565	-0.227625374564474
2072800000	0.717698805395835	-0.231369411526797
2073600000	0.71621485435524	-0.23489233765527
2074400000	0.713918143016176	-0.238763241309234
2075200000	0.712228556620544	-0.24219826146397
2076000000	0.710610439281884	-0.246167296206098
2076800000	0.709079518707625	-0.249776082527427
2077600000	0.706932456311149	-0.253555977569435
2078400000	0.705386618527901	-0.257294273952636
2079200000	0.703798135178604	-0.260691651010697
2080000000	0.701460381796973	-0.265011406354873
2080800000	0.699724245485731	-0.26858728078499
2081600000	0.697759936857159	-0.272606827868119
2082400000	0.695533052042603	-0.275776150536329
2083200000	0.693789247840875	-0.279232703544813
2084000000	0.691552716632401	-0.283153946905567
2084800000	0.689792112228404	-0.287003427893977
2085600000	0.687388954244092	-0.290092022425267
2086400000	0.685214605209285	-0.294053979715586
2087200000	0.68313126545518	-0.297595787861659
2088000000	0.680893087845788	-0.300692714914005
2088800000	0.678507988121361	-0.304587611072643
2089600000	0.676420439185355	-0.307632107094537
2090400000	0.674405190333196	-0.310938569503509
2091200000	0.672431245840641	-0.314176615235078
2092000000	0.670135478622914	-0.317606841659588
2092800000	0.66764144286943	-0.3210584891126
2093600000	0.665593569973057	-0.32411132508785
2094400000	0.663181755088511	-0.326717813705046
2095200000	0.661268216963632	-0.330207243465095
2096000000	0.659445835770569	-0.333911899334083
2096800000	0.656623625608148	-0.33747187732036
2097600000	0.654308985417658	-0.340463887741349
2098400000	0.652159363817789	-0.343548732028096
2099200000	0.649749492856792	-0.346921397304311
2100000000	0.647280090815295	-0.350468410445816
2100800000	0.644526258835862	-0.353397169274626
2101600000	0.64185759798555	-0.356984473965514
2102400000	0.639508599800142	-0.359255808161768
2103200000	0.637624588981743	-0.36249489424244
2104000000	0.63498754373719	-0.365564928825833
2104800000	0.63265518770035	-0.368059811262009
2105600000	0.629719888718753	-0.370537536708069
2106400000	0.627412652971484	-0.372918082856483
2107200000	0.62510262624946	-0.376132412407352
2108000000	0.622979937107043	-0.379405286695106
2108800000	0.619998974959892	-0.381336714652729
2109600000	0.617464451276316	-0.384683553404346
2110400000	0.615110775245781	-0.386663200104012
2111200000	0.612616061402633	-0.389711099174525
2112000000	0.609606977513667	-0.392543002519413
2112800000	0.607026196423698	-0.395151513233424
2113600000	0.604322573309272	-0.398132022308283
2114400000	0.601940148112468	-0.401278073505914
2115200000	0.598790573299476	-0.404073955079578
2116000000	0.596523439582302	-0.406034772192744
2116800000	0.593339883867711	-0.408832739297752
2117600000	0.590901796229599	-0.411624329331887
2118400000	0.587442355573953	-0.413863722441335
2119200000	0.584840540419637	-0.415858004476594
2120000000	0.581943187024204	-0.419250864854292
2120800000	0.578483810607317	-0.422449504318594
2121600000	0.576749307205958	-0.424430187785387
2122400000	0.57301445164157	-0.426056116618525
2123200000	0.570038151617514	-0.428271707012443
2124000000	0.567183670478284	-0.429996369150681
2124800000	0.564331122510857	-0.432302295842195
2125600000	0.561230155879956	-0.43397609279321
2126400000	0.558264260672072	-0.436509291213467
2127200000	0.555716034001682	-0.438379244779371
2128000000	0.553583675770735	-0.439378604847993
2128800000	0.550555091536848	-0.442252018613457
2129600000	0.547683578683061	-0.444402449422349
2130400000	0.545119965479782	-0.44670109143345
2131200000	0.542707742192788	-0.44864190571054
2132000000	0.540140944897318	-0.450846173555899
2132800000	0.537380721475736	-0.453042391314279
2133600000	0.53502921147866	-0.455307655705806
2134400000	0.531787939272032	-0.457322182700513
2135200000	0.52938775293988	-0.460382188412417
2136000000	0.525825463367914	-0.462641238440465
2136800000	0.522358114489497	-0.465172612250995
2137600000	0.519718007375453	-0.467458058392574
2138400000	0.515860168628337	-0.469615957052307
2139200000	0.512979971882818	-0.471300946008727
2140000000	0.509286525165902	-0.473558426200821
2140800000	0.505805450048447	-0.475489113810684
2141600000	0.502327151922921	-0.477936804280057
2142400000	0.499320700806461	-0.479608647236917
2143200000	0.496021596371876	-0.481027912104436
2144000000	0.492666870098414	-0.483076240978441
2144800000	0.489723827428912	-0.484968854193144
2145600000	0.486507708555842	-0.486448491386689
2146400000	0.483009914189284	-0.488397542117802
2147200000	0.479860888659161	-0.490755561544653
2148000000	0.476828041396645	-0.492577235697893
2148800000	0.473191379153312	-0.494219103680933
2149600000	0.469703638370169	-0.496516578936643
2150400000	0.466308833359527	-0.498402860873168
2151200000	0.462655775460546	-0.500201195081194
2152000000	0.459178122777088	-0.502307712668511
2152800000	0.455404662891955	-0.504058224167856
2153600000	0.452029199547243	-0.505785717180186
2154400000	0.448120615196231	-0.507535933758644
2155200000	0.444004120789854	-0.509005778558229
2156000000	0.440511901869758	-0.510770858420747
2156800000	0.436409040843602	-0.51210081290085
2157600000	0.432466113661194	-0.513608807971865
2158400000	0.428438952876583	-0.514664742886068
2159200000	0.424737068199246	-0.516058247176097
2160000000	0.421111105627537	-0.51751401653108
2160800000	0.417319929399401	-0.518700670629132
2161600000	0.41354234416062	-0.520268361253612
2162400000	0.409637719944215	-0.521124924474172
2163200000	0.406058894588332	-0.522561232212947
2164000000	0.402324657289762	-0.523386182611046
2164800000	0.398324452979382	-0.524868468468261
2165600000	0.394344030615789	-0.525834085428076
2166400000	0.39042900552429	-0.526841686970001
2167200000	0.386446088927091	-0.527897983833536
2168000000	0.382529875536091	-0.52828214586252
2168800000	0.378639044947929	-0.529768752544766
2169600000	0.374696804440939	-0.530611475947867
2170400000	0.370933723522911	-0.5312491729301
2171200000	0.367128551472833	-0.531933510993732
2172000000	0.363320743174651	-0.532808536996849
2172800000	0.359453622186233	-0.533155111605978
2173600000	0.355665584404069	-0.534132448083847
2174400000	0.35180151718887	-0.534630540655732
2175200000	0.348038409817981	-0.535267518548587
2176000000	0.344340867107341	-0.536489984127521
2176800000	0.34064452473655	-0.537049845632495
2177600000	0.336636837822609	-0.53799306623948
2178400000	0.33319917703199	-0.538180035247576
2179200000	0.329230734038527	-0.539054869045838
2180000000	0.325180811174739	-0.539829970825545
2180800000	0.321270678852653	-0.540493670032389
2181600000	0.316941733990092	-0.541404610479865
2182400000	0.313259628746213	-0.541632623772164
2183200000	0.309225584513816	-0.542445822037355
2184000000	0.305300798512836	-0.542957815333073
2184800000	0.301095873755099	-0.543592252516418
2185600000	0.296939659180679	-0.54417481279375
2186400000	0.293100403226238	-0.544201767611665
2187200000	0.288673875139358	-0.544780248837547
2188000000	0.284605410267399	-0.545202467608076
2188800000	0.280514215039152	-0.545634196500069
2189600000	0.275769635736191	-0.545768718281438
2190400000	0.271656091887927	-0.546135351927755
2191200000	0.26755474848382	-0.546042259683687
2192000000	0.263294466593666	-0.545712607713763
2192800000	0.258999333615351	-0.545575966448379
2193600000	0.254941293192013	-0.54556691526544
2194400000	0.251115927188929	-0.545017984104528
2195200000	0.246912432041579	-0.545126396477953
2196000000	0.2432870898904	-0.544609740319226
2196800000	0.23921142597026	-0.544411236804372
2197600000	0.23527246406631	-0.544261311114457
2198400000	0.231644947525868	-0.543869891091811
2199200000	0.227722682330689	-0.543567352049883
2200000000	0.223950039619366	-0.543424988773609
2200800000	0.220075774634691	-0.543099711881421
2201600000	0.216042720811998	-0.542886098649522
2202400000	0.212168342167715	-0.542891041519067
2203200000	0.207939610855139	-0.54253918395284
2204000000	0.20407931798243	-0.542251297515719
2204800000	0.199647467562322	-0.542230395168639
2205600000	0.195497216522649	-0.541999851345652
2206400000	0.191468607517709	-0.541584614377979
2207200000	0.187140309417009	-0.541129950225997
2208000000	0.182748467692035	-0.54074705500244
2208800000	0.178442148120788	-0.540228919759399
2209600000	0.174050790006841	-0.539820420308316
2210400000	0.169998971570025	-0.539212954597294
2211200000	0.16553238827676	-0.538750700599737
2212000000	0.161092997886968	-0.538099990525714
2212800000	0.157029902272586	-0.537096659844449
2213600000	0.152533524823798	-0.536229042523085
2214400000	0.148648082221687	-0.535403789135489
2215200000	0.144082213562289	-0.534672626549586
2216000000	0.140036931836568	-0.532915233682226
2216800000	0.136080106607	-0.531942689561667
2217600000	0.132168183279483	-0.530897532183802
2218400000	0.128273234321862	-0.530520462348004
2219200000	0.124351012215611	-0.528746098101343
2220000000	0.120474439121727	-0.527342471313648
2220800000	0.116323013579983	-0.526951959360602
2221600000	0.112397518721334	-0.52657039972871
2222400000	0.108922114388203	-0.524426180346622
2223200000	0.105187917805824	-0.523668971493918
2224000000	0.101442835348121	-0.522682265459522
2224800000	0.0975534828823907	-0.521684539168114
2225600000	0.0934862909059559	-0.520402540112011
2226400000	0.0897000451666616	-0.519578634652393
2227200000	0.0854010564432957	-0.517938125031461
2228000000	0.0812480718500246	-0.51698313226613
2228800000	0.0771784195436191	-0.5152936420027
2229600000	0.0728078551426324	-0.514189748205027
2230400000	0.069064684794233	-0.512545877247063
2231200000	0.0653925253290953	-0.511460447128241
2232000000	0.0611824256580306	-0.509712352092383
2232800000	0.057486384019274	-0.507911343304055
2233600000	0.053224314416564	-0.506505582808795
2234400000	0.0498701472529938	-0.503320635085188
2235200000	0.0457001549549352	-0.501914149130715
2236000000	0.0417258860859426	-0.499738700020326
2236800000	0.0380804054052826	-0.497881222553448
2237600000	0.034816509744182	-0.495755185766163
2238400000	0.0315726035058072	-0.493770651222737
2239200000	0.0279099008464265	-0.491922409579332
2240000000	0.0238013277906731	-0.489642851668022
2240800000	0.0206857356684744	-0.487390191217183
2241600000	0.0174149990981136	-0.486148842756882
2242400000	0.0138950877546685	-0.483907149764181
2243200000	0.0106172452193446	-0.48142804567266
2244000000	0.0068286191491839	-0.479371222015374
2244800000	0.00361628814807568	-0.476943549055759
2245600000	0.000478399068169762	-0.474834621208747
2246400000	-0.00335785206848015	-0.472507162161096
2247200000	-0.00669546650108074	-0.46947967262841
2248000000	-0.00956033662961843	-0.466919687520187
2248800000	-0.0124186617087692	-0.464303440110083
2249600000	-0.0152217267407469	-0.461749739761397
2250400000	-0.0180903391397927	-0.459652685369846
2251200000	-0.02111033336521	-0.456899132057464
2252000000	-0.0236836594086214	-0.454376027606708
2252800000	-0.026166804199664	-0.45229823921813
2253600000	-0.0291773903455671	-0.44943203942082
2254400000	-0.0314812865753977	-0.447464652992995
2255200000	-0.0343683563478279	-0.444194116451725
2256000000	-0.037022472190594	-0.441972065693832
2256800000	-0.0392091228441209	-0.439641992629484
2257600000	-0.0419911298010533	-0.437227656507029
2258400000	-0.044400517083736	-0.435230317674168
2259200000	-0.0468785085922825	-0.432451656709426
2260000000	-0.0494519749913358	-0.429709095504446
2260800000	-0.0515193943862005	-0.427228259154139
2261600000	-0.0537332705219449	-0.424398359060148
2262400000	-0.0564215430921329	-0.422106105986583
2263200000	-0.0589242895785983	-0.419574976340699
2264000000	-0.0612296201385913	-0.416896304281135
2264800000	-0.0635279190285603	-0.413924134238526
2265600000	-0.0659945153527999	-0.411466501958185
2266400000	-0.0680735181111571	-0.408786420437206
2267200000	-0.0700986730823562	-0.405879650204888
2268000000	-0.0724078864245909	-0.403375166953798
2268800000	-0.0743794192441771	-0.400278845437026
2269600000	-0.0766729206719532	-0.397507779721871
2270400000	-0.0787652175599055	-0.394534702443776
2271200000	-0.0806713261753873	-0.391565267568784
2272000000	-0.082300930030489	-0.388824900410924
2272800000	-0.0843372319407277	-0.385418947916524
2273600000	-0.0858673141477157	-0.382365929002198
2274400000	-0.0877975443818607	-0.379316122663208
2275200000	-0.0893094510519649	-0.376179557075398
2276000000	-0.090827285088139	-0.373075985247741
2276800000	-0.0926804791425416	-0.369762472279804
2277600000	-0.0941107729699881	-0.366657202845324
2278400000	-0.0951109189960715	-0.363060619807771
2279200000	-0.0962310183105486	-0.359968371782155
2280000000	-0.0967809380629156	-0.356953858267621
2280800000	-0.0978294115657283	-0.354049419108449
2281600000	-0.0984742348413662	-0.351015256501278
2282400000	-0.0995909878820858	-0.348058280445941
2283200000	-0.100090065909048	-0.345217394767263
2284000000	-0.10095768978648	-0.34244227246433
2284800000	-0.101595609087673	-0.339502250278805
2285600000	-0.102631719797849	-0.336415287471923
2286400000	-0.103161279078343	-0.333768544350158
2287200000	-0.103851803666885	-0.330914555333237
2288000000	-0.104586885314736	-0.327976554488985
2288800000	-0.105512740605925	-0.325034436249158
2289600000	-0.105887431089765	-0.322480480467393
2290400000	-0.106596341309491	-0.319359424943463
2291200000	-0.10707050655857	-0.316642494595575
2292000000	-0.107654753033185	-0.313888684998442
2292800000	-0.108241852619426	-0.310995038490608
2293600000	-0.10859796247871	-0.308158132916846
2294400000	-0.109197828402624	-0.305463298503855
2295200000	-0.10954429992259	-0.302463804258456
2296000000	-0.109679689733556	-0.299717284855748
2296800000	-0.1096936668016	-0.2966206894257
2297600000	-0.110163569185517	-0.293917505816557
2298400000	-0.110249587544435	-0.290968178629732
2299200000	-0.110470372283674	-0.288257816792296
2300000000	-0.110316129001944	-0.285504068290048
2300800000	-0.110382493839863	-0.282839192660574
2301600000	-0.11068317335799	-0.280518604972663
2302400000	-0.111292404726863	-0.277834289414461
2303200000	-0.111561155751251	-0.275047703499006
2304000000	-0.111896038203319	-0.272011984396554
2304800000	-0.112376887482703	-0.26898976713458
2305600000	-0.112632464176397	-0.265891996785854
2306400000	-0.112783942313262	-0.263002182949252
2307200000	-0.112749280988685	-0.259769077536956
2308000000	-0.112508085419821	-0.256720745360884
2308800000	-0.112604381042334	-0.253385011272378
2309600000	-0.112422624047067	-0.249973606008184
2310400000	-0.111787583440514	-0.246866845637354
2311200000	-0.111394190597468	-0.244010414638618
2312000000	-0.111168721425601	-0.240898382724904
2312800000	-0.111295853215575	-0.237601833429873
2313600000	-0.110845814284488	-0.234552182878966
2314400000	-0.11064963273291	-0.231258627653001
2315200000	-0.110116318847166	-0.227950137293377
2316000000	-0.109515609363926	-0.22459229340444
2316800000	-0.109297533292338	-0.220981133221948
2317600000	-0.108262804431524	-0.217634900605143
2318400000	-0.107496119784937	-0.213828569214799
2319200000	-0.10634260012801	-0.210634730911458
2320000000	-0.105117871324805	-0.207363918117687
2320800000	-0.103475297036503	-0.204339014134221
